Freq (MHz),re(S11),im(S11),re(Z),im(Z)
200.000,0.69101,-0.70633,1.985,-118.835
205.806,0.67442,-0.72039,2.097,-115.269
211.612,0.65974,-0.73333,2.063,-112.207
217.417,0.64473,-0.74669,1.959,-109.203
223.223,0.62893,-0.75892,1.996,-106.343
229.029,0.61214,-0.77052,2.122,-103.545
234.835,0.59723,-0.78293,1.957,-100.997
240.641,0.58072,-0.79436,1.968,-98.458
246.446,0.56548,-0.80409,2.016,-96.256
252.252,0.54895,-0.81527,1.958,-93.913
258.058,0.53255,-0.82519,1.971,-91.744
263.864,0.51677,-0.83540,1.882,-89.692
269.670,0.50190,-0.84427,1.837,-87.863
275.475,0.48543,-0.85229,1.915,-85.988
281.281,0.47007,-0.86219,1.741,-84.182
287.087,0.45380,-0.87023,1.742,-82.437
292.893,0.43911,-0.87871,1.613,-80.859
298.699,0.42288,-0.88543,1.664,-79.265
304.505,0.40837,-0.89173,1.661,-77.866
310.310,0.39376,-0.89880,1.579,-76.470
316.116,0.37852,-0.90663,1.438,-75.039
321.922,0.36181,-0.91232,1.483,-73.597
327.728,0.34817,-0.91906,1.344,-72.393
333.534,0.33417,-0.92410,1.324,-71.233
339.339,0.31976,-0.92812,1.373,-70.093
345.145,0.30479,-0.93316,1.341,-68.913
350.951,0.29222,-0.94010,1.113,-67.890
356.757,0.27676,-0.94387,1.149,-66.753
362.563,0.26250,-0.94802,1.121,-65.714
368.368,0.24701,-0.95023,1.226,-64.644
374.174,0.23406,-0.95531,1.087,-63.718
379.980,0.22228,-0.95924,0.999,-62.901
385.786,0.20713,-0.96267,0.976,-61.893
391.592,0.19351,-0.96585,0.938,-61.003
397.397,0.17985,-0.96729,0.995,-60.144
403.203,0.16714,-0.97018,0.942,-59.341
409.009,0.15284,-0.97324,0.884,-58.457
414.815,0.13964,-0.97618,0.814,-57.655
420.621,0.12725,-0.97675,0.867,-56.929
426.426,0.11301,-0.97823,0.869,-56.101
432.232,0.10001,-0.97937,0.872,-55.358
438.038,0.08780,-0.97999,0.890,-54.672
443.844,0.07316,-0.97979,0.953,-53.864
449.650,0.06000,-0.98155,0.892,-53.142
455.455,0.04739,-0.98159,0.915,-52.464
461.261,0.03477,-0.98060,0.983,-51.795
467.067,0.02154,-0.98239,0.896,-51.101
472.873,0.00863,-0.98314,0.856,-50.433
478.679,-0.00440,-0.98327,0.839,-49.770
484.484,-0.01715,-0.98217,0.876,-49.127
490.290,-0.02689,-0.98214,0.859,-48.643
496.096,-0.03857,-0.98040,0.915,-48.063
501.902,-0.05044,-0.98155,0.823,-47.490
507.708,-0.06363,-0.98076,0.814,-46.854
513.514,-0.07672,-0.97872,0.855,-46.226
519.319,-0.08708,-0.97712,0.881,-45.735
525.125,-0.09918,-0.97559,0.889,-45.167
530.931,-0.11267,-0.97487,0.844,-44.547
536.737,-0.12333,-0.97235,0.891,-44.051
542.543,-0.13573,-0.97245,0.803,-43.500
548.348,-0.14205,-0.97087,0.828,-43.210
554.154,-0.15180,-0.96696,0.927,-42.755
559.960,-0.16567,-0.96234,1.017,-42.118
565.766,-0.17580,-0.96279,0.912,-41.689
571.572,-0.18812,-0.96136,0.865,-41.157
577.377,-0.19788,-0.95781,0.923,-40.718
583.183,-0.20522,-0.95660,0.904,-40.403
588.989,-0.21685,-0.95533,0.842,-39.916
594.795,-0.22605,-0.95459,0.780,-39.537
600.601,-0.23533,-0.95075,0.837,-39.126
606.406,-0.24627,-0.95081,0.719,-38.694
612.212,-0.25609,-0.94901,0.682,-38.291
618.018,-0.26444,-0.94716,0.660,-37.948
623.824,-0.27296,-0.94389,0.688,-37.585
629.630,-0.28340,-0.94273,0.610,-37.176
635.435,-0.29049,-0.93895,0.667,-36.865
641.241,-0.30117,-0.93778,0.581,-36.454
647.047,-0.30949,-0.93549,0.561,-36.121
652.853,-0.31741,-0.93238,0.574,-35.793
658.659,-0.32319,-0.93122,0.542,-35.570
664.464,-0.33445,-0.92643,0.566,-35.105
670.270,-0.34141,-0.92331,0.583,-34.817
676.076,-0.35016,-0.91954,0.596,-34.459
681.882,-0.35806,-0.91636,0.598,-34.141
687.688,-0.36482,-0.91457,0.564,-33.883
693.493,-0.37299,-0.90856,0.653,-33.519
699.299,-0.38246,-0.90657,0.583,-33.170
705.105,-0.39211,-0.90132,0.616,-32.771
710.911,-0.39669,-0.89776,0.665,-32.566
716.717,-0.40424,-0.89283,0.712,-32.244
722.523,-0.41373,-0.88892,0.693,-31.874
728.328,-0.42206,-0.88611,0.653,-31.563
734.134,-0.42756,-0.88233,0.687,-31.328
739.940,-0.43776,-0.87811,0.657,-30.939
745.746,-0.44678,-0.87031,0.753,-30.531
751.552,-0.45117,-0.86984,0.696,-30.387
757.357,-0.45979,-0.86315,0.757,-30.012
763.163,-0.46667,-0.85779,0.804,-29.713
768.969,-0.47461,-0.85497,0.753,-29.426
774.775,-0.48401,-0.84816,0.794,-29.030
780.581,-0.49214,-0.84085,0.865,-28.664
786.386,-0.49886,-0.83672,0.866,-28.395
792.192,-0.50538,-0.83429,0.819,-28.164
797.998,-0.51426,-0.82840,0.827,-27.806
803.804,-0.51951,-0.82434,0.846,-27.584
809.610,-0.52861,-0.82028,0.793,-27.256
815.415,-0.53290,-0.81434,0.878,-27.028
821.221,-0.54165,-0.81078,0.811,-26.723
827.027,-0.54715,-0.80575,0.844,-26.480
832.833,-0.55690,-0.79959,0.825,-26.102
838.639,-0.55981,-0.79384,0.921,-25.915
844.444,-0.56574,-0.78889,0.937,-25.664
850.250,-0.57307,-0.78256,0.959,-25.350
856.056,-0.57866,-0.77730,0.984,-25.104
861.862,-0.58774,-0.77314,0.911,-24.791
867.668,-0.59614,-0.76661,0.908,-24.451
873.473,-0.60290,-0.76195,0.888,-24.190
879.279,-0.61028,-0.75710,0.858,-23.912
885.085,-0.61572,-0.75222,0.867,-23.682
890.891,-0.62332,-0.74596,0.862,-23.372
896.697,-0.62829,-0.74307,0.829,-23.196
902.503,-0.63561,-0.73734,0.813,-22.907
908.308,-0.64037,-0.73321,0.810,-22.711
914.114,-0.64541,-0.72863,0.811,-22.501
919.920,-0.65133,-0.72153,0.849,-22.218
925.726,-0.65873,-0.71516,0.837,-21.918
931.532,-0.66233,-0.71103,0.853,-21.751
937.337,-0.67070,-0.70393,0.831,-21.417
943.143,-0.67575,-0.69682,0.878,-21.156
948.949,-0.68265,-0.69078,0.859,-20.879
954.755,-0.68857,-0.68336,0.887,-20.594
960.561,-0.69300,-0.67817,0.899,-20.389
966.366,-0.69871,-0.67136,0.915,-20.123
972.172,-0.70655,-0.66369,0.899,-19.795
977.978,-0.71197,-0.65778,0.898,-19.556
983.784,-0.71346,-0.65247,0.971,-19.409
989.590,-0.72140,-0.64530,0.935,-19.094
995.395,-0.72611,-0.63881,0.955,-18.858
1001.201,-0.73023,-0.63407,0.953,-18.672
1007.007,-0.73623,-0.62748,0.942,-18.411
1012.813,-0.74077,-0.61558,1.061,-18.056
1018.619,-0.74536,-0.60669,1.118,-17.769
1024.424,-0.74800,-0.59642,1.243,-17.484
1030.230,-0.75715,-0.58480,1.235,-17.052
1036.036,-0.76047,-0.57518,1.324,-16.769
1041.842,-0.76697,-0.56545,1.337,-16.428
1047.648,-0.77018,-0.55778,1.389,-16.192
1053.453,-0.77603,-0.54938,1.388,-15.896
1059.259,-0.78147,-0.53831,1.437,-15.543
1065.065,-0.78892,-0.52919,1.402,-15.205
1070.871,-0.79415,-0.52087,1.404,-14.923
1076.677,-0.79798,-0.51023,1.473,-14.607
1082.482,-0.80211,-0.50219,1.492,-14.349
1088.288,-0.80734,-0.49244,1.506,-14.034
1094.094,-0.81118,-0.47999,1.589,-13.672
1099.900,-0.81513,-0.46888,1.646,-13.341
1105.706,-0.82144,-0.45556,1.669,-12.923
1111.512,-0.82187,-0.44711,1.771,-12.705
1117.317,-0.82779,-0.43210,1.815,-12.249
1123.123,-0.83172,-0.42084,1.856,-11.914
1128.929,-0.83519,-0.40813,1.922,-11.547
1134.735,-0.83838,-0.39650,1.978,-11.211
1140.541,-0.84335,-0.38336,2.000,-10.815
1146.346,-0.84588,-0.37150,2.066,-10.479
1152.152,-0.84524,-0.36074,2.198,-10.205
1157.958,-0.85435,-0.34666,2.106,-9.741
1163.764,-0.85789,-0.33354,2.144,-9.361
1169.570,-0.86166,-0.32096,2.165,-8.994
1175.375,-0.86515,-0.30611,2.209,-8.568
1181.181,-0.86708,-0.29267,2.275,-8.194
1186.987,-0.87010,-0.27712,2.324,-7.754
1192.793,-0.86931,-0.26313,2.456,-7.384
1198.599,-0.87300,-0.24706,2.477,-6.922
1204.404,-0.87372,-0.23070,2.573,-6.473
1210.210,-0.87520,-0.21439,2.640,-6.018
1216.016,-0.87626,-0.19759,2.713,-5.551
1221.822,-0.87675,-0.18029,2.796,-5.072
1227.628,-0.87660,-0.16345,2.886,-4.606
1233.433,-0.87571,-0.14686,2.988,-4.149
1239.239,-0.87491,-0.12785,3.089,-3.620
1245.045,-0.87381,-0.11014,3.183,-3.126
1250.851,-0.87290,-0.09269,3.263,-2.636
1256.657,-0.87045,-0.07365,3.380,-2.102
1262.462,-0.86870,-0.05523,3.466,-1.580
1268.268,-0.86485,-0.03651,3.603,-1.049
1274.074,-0.86049,-0.01540,3.746,-0.445
1279.880,-0.85680,0.00571,3.856,0.166
1285.686,-0.85033,0.02806,4.032,0.819
1291.491,-0.84312,0.04932,4.217,1.451
1297.297,-0.83600,0.07099,4.385,2.103
1303.103,-0.82758,0.09264,4.577,2.766
1308.909,-0.81832,0.11767,4.766,3.544
1314.715,-0.80708,0.14218,4.997,4.327
1320.521,-0.79829,0.16118,5.165,4.944
1326.326,-0.78484,0.18600,5.425,5.776
1332.132,-0.77384,0.20639,5.622,6.472
1337.938,-0.76194,0.22822,5.819,7.230
1343.744,-0.74840,0.25149,6.036,8.060
1349.550,-0.73194,0.27657,6.303,8.991
1355.355,-0.71527,0.29979,6.572,9.888
1361.161,-0.69720,0.32138,6.881,10.771
1366.967,-0.67884,0.34500,7.151,11.745
1372.773,-0.65644,0.36911,7.515,12.816
1378.579,-0.63587,0.38947,7.851,13.773
1384.384,-0.61186,0.41236,8.229,14.897
1390.190,-0.58583,0.43514,8.643,16.091
1395.996,-0.55973,0.45640,9.057,17.281
1401.802,-0.53236,0.47535,9.530,18.467
1407.608,-0.50404,0.49418,10.009,19.717
1413.413,-0.47437,0.51389,10.478,21.080
1419.219,-0.44359,0.53102,11.016,22.444
1425.025,-0.41166,0.54679,11.597,23.859
1430.831,-0.37729,0.56386,12.184,25.458
1436.637,-0.34298,0.57629,12.882,26.984
1442.442,-0.30785,0.58789,13.609,28.593
1448.248,-0.27045,0.59722,14.467,30.305
1454.054,-0.23131,0.60655,15.355,32.194
1459.860,-0.19297,0.61299,16.315,34.075
1465.666,-0.15461,0.61755,17.344,36.019
1471.471,-0.11477,0.62119,18.450,38.143
1477.277,-0.07483,0.62264,19.661,40.354
1483.083,-0.03253,0.62058,21.148,42.762
1488.889,0.00808,0.61895,22.562,45.278
1494.695,0.05070,0.61227,24.394,47.982
1500.501,0.08980,0.60647,26.087,50.697
1506.306,0.13101,0.59627,28.239,53.685
1512.112,0.17230,0.58251,30.798,56.863
1517.918,0.20800,0.56865,33.314,59.819
1523.724,0.24800,0.55282,36.326,63.461
1529.530,0.28609,0.53519,39.677,67.226
1535.335,0.32372,0.51492,43.604,71.270
1541.141,0.35830,0.49387,47.866,75.321
1546.947,0.39282,0.47083,52.851,79.754
1552.753,0.42413,0.44847,58.094,84.180
1558.559,0.45597,0.42154,64.856,88.994
1564.364,0.48467,0.39602,72.003,93.755
1570.170,0.51311,0.36740,80.868,98.751
1575.976,0.53935,0.33947,90.682,103.675
1581.782,0.56374,0.31140,101.852,108.391
1587.588,0.58592,0.28095,115.372,112.202
1593.393,0.60716,0.25046,130.986,115.391
1599.199,0.62584,0.21943,148.866,116.628
1605.005,0.64360,0.18953,168.724,116.317
1610.811,0.65896,0.15759,191.626,111.650
1616.617,0.67322,0.12537,216.754,102.338
1622.422,0.68636,0.09538,241.842,88.754
1628.228,0.69719,0.06503,265.683,67.799
1634.034,0.70712,0.03382,286.944,38.906
1639.840,0.71522,0.00241,301.124,2.973
1645.646,0.72096,-0.02742,304.944,-34.873
1651.451,0.72689,-0.05813,300.278,-74.554
1657.257,0.73034,-0.08618,286.469,-107.527
1663.063,0.73407,-0.11588,266.033,-137.707
1668.869,0.73555,-0.14508,240.662,-159.464
1674.675,0.73713,-0.17115,217.162,-173.947
1680.480,0.73584,-0.19990,190.713,-182.161
1686.286,0.73594,-0.22491,169.476,-186.937
1692.092,0.73292,-0.25233,147.832,-186.907
1697.898,0.73391,-0.27272,133.282,-187.848
1703.704,0.72710,-0.29886,116.613,-182.462
1709.510,0.72499,-0.32311,102.759,-179.476
1715.315,0.71953,-0.34629,91.238,-174.384
1721.121,0.71549,-0.36996,80.621,-169.849
1726.927,0.70938,-0.39139,72.291,-164.695
1732.733,0.69959,-0.41562,64.232,-158.039
1738.539,0.69746,-0.42896,59.799,-155.680
1744.344,0.69308,-0.44791,54.102,-151.924
1750.150,0.68365,-0.46837,49.031,-146.619
1755.956,0.67791,-0.48591,44.775,-142.977
1761.762,0.67112,-0.50552,40.422,-138.990
1767.568,0.66381,-0.52272,37.038,-135.328
1773.373,0.66062,-0.53502,34.544,-133.280
1779.179,0.65241,-0.55252,31.576,-129.671
1784.985,0.64100,-0.57227,28.664,-125.396
1790.791,0.63105,-0.58659,26.831,-122.153
1796.597,0.62650,-0.60046,24.691,-120.078
1802.402,0.61675,-0.61524,22.945,-117.099
1808.208,0.60855,-0.62988,21.175,-114.527
1814.014,0.60141,-0.64301,19.643,-112.348
1819.820,0.59302,-0.65423,18.555,-110.205
1825.626,0.58542,-0.66826,17.036,-108.054
1831.431,0.57841,-0.68268,15.486,-106.040
1837.237,0.57503,-0.69051,14.644,-105.037
1843.043,0.56458,-0.70230,13.768,-102.853
1848.849,0.56218,-0.70918,13.030,-102.095
1854.655,0.55287,-0.72455,11.682,-99.952
1860.460,0.54644,-0.73244,11.112,-98.687
1866.266,0.54028,-0.74218,10.318,-97.376
1872.072,0.53454,-0.75164,9.551,-96.164
1877.878,0.52516,-0.76056,9.066,-94.606
1883.684,0.51838,-0.76506,8.930,-93.611
1889.489,0.50972,-0.77445,8.356,-92.181
1895.295,0.50558,-0.78131,7.834,-91.392
1901.101,0.49565,-0.78797,7.622,-90.027
1906.907,0.49037,-0.79529,7.119,-89.137
1912.713,0.48122,-0.79868,7.195,-88.055
1918.519,0.47073,-0.80991,6.541,-86.521
1924.324,0.46890,-0.81329,6.290,-86.198
1930.130,0.45871,-0.81853,6.210,-84.999
1935.936,0.45268,-0.82321,6.008,-84.239
1941.742,0.44964,-0.82852,5.628,-83.745
1947.548,0.43634,-0.83395,5.633,-82.309
1953.353,0.43410,-0.83830,5.319,-81.946
1959.159,0.41709,-0.84369,5.431,-80.230
1964.965,0.42054,-0.84637,5.075,-80.445
1970.771,0.41153,-0.85290,4.805,-79.433
1976.577,0.40737,-0.85449,4.804,-79.020
1982.382,0.39763,-0.85786,4.822,-78.075
1988.188,0.39290,-0.86308,4.522,-77.512
1993.994,0.38127,-0.86408,4.781,-76.504
1999.800,0.37650,-0.87249,4.218,-75.870
2005.606,0.37225,-0.87200,4.377,-75.533
2011.411,0.36132,-0.87636,4.313,-74.526
2017.217,0.35365,-0.88034,4.189,-73.807
2023.023,0.34797,-0.88307,4.112,-73.286
2028.829,0.34547,-0.88721,3.846,-72.988
2034.635,0.33988,-0.89056,3.718,-72.471
2040.440,0.33232,-0.89418,3.614,-71.801
2046.246,0.32835,-0.89410,3.709,-71.498
2052.052,0.32101,-0.89918,3.483,-70.827
2057.858,0.31572,-0.90634,3.058,-70.276
2063.664,0.30412,-0.90970,3.048,-69.347
2069.469,0.30785,-0.91395,2.660,-69.535
2075.275,0.29915,-0.91471,2.780,-68.885
2081.081,0.29537,-0.91735,2.662,-68.560
2086.887,0.29402,-0.92173,2.372,-68.378
2092.693,0.29058,-0.92662,2.091,-68.039
2098.498,0.28055,-0.93045,2.008,-67.261
2104.304,0.27605,-0.93561,1.730,-66.854
2110.110,0.27380,-0.94137,1.375,-66.596
2115.916,0.27099,-0.94261,1.340,-66.382
2121.722,0.26632,-0.94872,1.008,-65.959
2127.528,0.26777,-0.95307,0.690,-65.979
2133.333,0.26465,-0.95588,0.559,-65.721
2139.139,0.25499,-0.95788,0.593,-65.048
2144.945,0.25668,-0.96091,0.365,-65.108
2150.751,0.25531,-0.96180,0.330,-65.003
2156.557,0.25180,-0.96467,0.201,-64.726
2162.362,0.25007,-0.96475,0.225,-64.613
2168.168,0.24856,-0.96692,0.109,-64.479
2173.974,0.24515,-0.96860,0.057,-64.232
2179.780,0.24391,-0.96998,-0.012,-64.130
2185.586,0.24449,-0.97015,-0.032,-64.164
2191.391,0.23747,-0.97334,-0.124,-63.665
2197.197,0.23356,-0.97113,0.077,-63.451
2203.003,0.23621,-0.96967,0.130,-63.642
2208.809,0.22637,-0.97020,0.242,-63.009
2214.615,0.22749,-0.96820,0.353,-63.109
2220.420,0.22493,-0.97108,0.208,-62.905
2226.226,0.22079,-0.97189,0.215,-62.632
2232.032,0.22074,-0.96896,0.401,-62.670
2237.838,0.21351,-0.96816,0.549,-62.225
2243.644,0.20567,-0.96583,0.795,-61.762
2249.449,0.20119,-0.96689,0.784,-61.469
2255.255,0.18752,-0.97236,0.603,-60.560
2261.061,0.20132,-0.96626,0.821,-61.485
2266.867,0.20093,-0.96514,0.896,-61.474
2272.673,0.19154,-0.96529,0.994,-60.886
2278.478,0.18940,-0.96762,0.873,-60.728
2284.284,0.18446,-0.96741,0.940,-60.426
2290.090,0.17813,-0.96372,1.231,-60.074
2295.896,0.17569,-0.96632,1.096,-59.898
2301.702,0.16660,-0.96744,1.114,-59.334
2307.508,0.15835,-0.96747,1.184,-58.835
2313.313,0.16773,-0.97102,0.886,-59.369
2319.119,0.14914,-0.97074,1.063,-58.258
2324.925,0.15219,-0.97026,1.067,-58.443
2330.731,0.14513,-0.97519,0.831,-57.985
2336.537,0.14711,-0.98189,0.421,-58.047
2342.342,0.14347,-0.97882,0.630,-57.859
2348.148,0.14282,-0.98186,0.458,-57.797
2353.954,0.13712,-0.98798,0.148,-57.419
2359.760,0.13116,-0.98637,0.285,-57.088
2365.566,0.13170,-0.98945,0.105,-57.096
2371.371,0.13027,-0.99511,-0.207,-56.972
2377.177,0.12271,-0.99187,0.033,-56.567
2382.983,0.12611,-1.00362,-0.654,-56.672
2388.789,0.13031,-1.00593,-0.817,-56.888
2394.595,0.12763,-1.01104,-1.079,-56.697
2400.400,0.12152,-1.01197,-1.082,-56.351
2406.206,0.12767,-1.01252,-1.162,-56.687
2412.012,0.12333,-1.01621,-1.330,-56.417
2417.818,0.12262,-1.02083,-1.576,-56.340
2423.624,0.12579,-1.01888,-1.497,-56.530
2429.429,0.12741,-1.02192,-1.677,-56.593
2435.235,0.13491,-1.02009,-1.643,-57.021
2441.041,0.13052,-1.02165,-1.689,-56.766
2446.847,0.12975,-1.02440,-1.833,-56.699
2452.653,0.12983,-1.02203,-1.704,-56.725
2458.458,0.12356,-1.02107,-1.597,-56.390
2464.264,0.12906,-1.02316,-1.759,-56.673
2470.070,0.13409,-1.02011,-1.637,-56.976
2475.876,0.13093,-1.02057,-1.634,-56.798
2481.682,0.12749,-1.01832,-1.480,-56.628
2487.487,0.12584,-1.01740,-1.415,-56.545
2493.293,0.12966,-1.01531,-1.333,-56.774
2499.099,0.12812,-1.01418,-1.257,-56.698
2504.905,0.12277,-1.01005,-0.985,-56.436
2510.711,0.12433,-1.00908,-0.944,-56.530
2516.517,0.12062,-1.00674,-0.785,-56.342
2522.322,0.11721,-1.00405,-0.611,-56.172
2528.128,0.11566,-1.00607,-0.712,-56.072
2533.934,0.11935,-1.00385,-0.615,-56.293
2539.740,0.11488,-1.00239,-0.503,-56.055
2545.546,0.11367,-0.99730,-0.212,-56.022
2551.351,0.10457,-0.99544,-0.051,-55.527
2557.157,0.10939,-0.99711,-0.173,-55.785
2562.963,0.09714,-0.99428,0.055,-55.123
2568.769,0.09800,-0.99363,0.086,-55.174
2574.575,0.09622,-0.99197,0.187,-55.084
2580.380,0.08070,-0.99240,0.236,-54.230
2586.186,0.08185,-0.99384,0.152,-54.287
2591.992,0.08053,-0.99037,0.347,-54.230
2597.798,0.08031,-0.99215,0.251,-54.210
2603.604,0.07218,-0.99433,0.165,-53.761
2609.409,0.09149,-0.99440,0.077,-54.812
2615.215,0.07007,-1.00304,-0.294,-53.614
2621.021,0.05387,-1.00144,-0.152,-52.762
2626.827,0.05808,-1.00545,-0.377,-52.970
2632.633,0.05899,-1.00730,-0.477,-53.011
2638.438,0.05819,-1.01051,-0.643,-52.958
2644.244,0.05538,-1.01461,-0.845,-52.796
2650.050,0.05909,-1.01673,-0.970,-52.981
2655.856,0.05439,-1.02037,-1.140,-52.723
2661.662,0.06015,-1.02336,-1.318,-53.008
2667.467,0.05505,-1.02498,-1.379,-52.738
2673.273,0.05939,-1.03056,-1.684,-52.936
2679.079,0.06119,-1.03044,-1.687,-53.029
2684.885,0.05941,-1.03176,-1.746,-52.931
2690.691,0.06037,-1.03395,-1.862,-52.970
2696.496,0.06327,-1.03706,-2.035,-53.102
2702.302,0.06649,-1.03870,-2.136,-53.258
2708.108,0.06268,-1.03640,-1.999,-53.075
2713.914,0.06844,-1.03657,-2.038,-53.369
2719.720,0.05902,-1.03881,-2.102,-52.877
2725.526,0.06917,-1.03892,-2.162,-53.393
2731.331,0.07249,-1.04001,-2.237,-53.556
2737.137,0.07102,-1.03766,-2.108,-53.495
2742.943,0.07666,-1.03661,-2.087,-53.791
2748.749,0.07429,-1.03940,-2.217,-53.652
2754.555,0.07456,-1.03554,-2.020,-53.689
2760.360,0.07565,-1.03237,-1.862,-53.764
2766.166,0.07761,-1.03155,-1.831,-53.869
2771.972,0.08520,-1.03115,-1.856,-54.267
2777.778,0.08349,-1.02656,-1.605,-54.206
2783.584,0.08042,-1.02291,-1.395,-54.066
2789.389,0.07409,-1.01791,-1.099,-53.759
2795.195,0.07755,-1.01613,-1.023,-53.951
2801.001,0.07432,-1.01562,-0.980,-53.783
2806.807,0.07316,-1.01062,-0.710,-53.746
2812.613,0.07204,-1.00990,-0.667,-53.689
2818.418,0.06034,-1.00521,-0.372,-53.090
2824.224,0.05388,-0.99907,-0.028,-52.769
2830.030,0.05240,-1.00340,-0.251,-52.678
2835.836,0.06235,-0.99908,-0.054,-53.217
2841.642,0.05155,-1.00006,-0.073,-52.644
2847.447,0.04689,-0.99606,0.149,-52.409
2853.253,0.04201,-0.99808,0.054,-52.149
2859.059,0.04613,-0.99629,0.139,-52.368
2864.865,0.01940,-0.99973,0.004,-50.979
2870.671,0.02700,-0.99718,0.126,-51.372
2876.476,0.02499,-1.00152,-0.094,-51.263
2882.282,0.02429,-1.00520,-0.281,-51.222
2888.088,0.03061,-1.00063,-0.057,-51.553
2893.894,0.03601,-1.00759,-0.425,-51.817
2899.700,0.02942,-1.01871,-0.976,-51.455
2905.506,0.01376,-1.01358,-0.688,-50.679
2911.311,0.01834,-1.02224,-1.128,-50.892
2917.117,0.01347,-1.02544,-1.277,-50.645
2922.923,0.00753,-1.02495,-1.243,-50.353
2928.729,0.01652,-1.02523,-1.273,-50.796
2934.535,0.01743,-1.03159,-1.588,-50.827
2940.340,0.01469,-1.02998,-1.503,-50.696
2946.146,0.01800,-1.03464,-1.740,-50.847
2951.952,0.01177,-1.03118,-1.556,-50.550
2957.758,0.01996,-1.03315,-1.671,-50.947
2963.564,0.01908,-1.03535,-1.778,-50.898
2969.369,0.00912,-1.03688,-1.828,-50.408
2975.175,0.01727,-1.03746,-1.876,-50.804
2980.981,0.02268,-1.03698,-1.868,-51.071
2986.787,0.02101,-1.03953,-1.988,-50.981
2992.593,0.02018,-1.03897,-1.958,-50.942
2998.398,0.01862,-1.04034,-2.020,-50.862
3004.204,0.02016,-1.04003,-2.010,-50.938
3010.010,0.02291,-1.03665,-1.852,-51.083
3015.816,0.01715,-1.03376,-1.694,-50.808
3021.622,0.02745,-1.03906,-1.985,-51.299
3027.427,0.02858,-1.03470,-1.773,-51.369
3033.233,0.02777,-1.03631,-1.850,-51.324
3039.039,0.02574,-1.03219,-1.640,-51.236
3044.845,0.02801,-1.03294,-1.684,-51.346
3050.651,0.03253,-1.02463,-1.282,-51.596
3056.456,0.03064,-1.02299,-1.194,-51.506
3062.262,0.02486,-1.02113,-1.086,-51.220
3068.068,0.03157,-1.01633,-0.861,-51.570
