Freq (MHz),re(S11),im(S11),re(Z),im(Z)
200.000,-0.01182,-0.07231,48.330,-7.027
205.806,-0.01825,-0.06887,47.761,-6.612
211.612,-0.02368,-0.06481,47.297,-6.160
217.417,-0.02885,-0.06046,46.861,-5.692
223.223,-0.03277,-0.05460,46.557,-5.104
229.029,-0.03656,-0.04862,46.262,-4.515
234.835,-0.03848,-0.04255,46.133,-3.939
240.641,-0.03989,-0.03599,46.049,-3.324
246.446,-0.04005,-0.02858,46.077,-2.640
252.252,-0.03979,-0.02272,46.128,-2.100
258.058,-0.03812,-0.01638,46.304,-1.520
263.864,-0.03571,-0.00996,46.543,-0.929
269.670,-0.03218,-0.00477,46.881,-0.448
275.475,-0.02831,-0.00055,47.247,-0.052
281.281,-0.02349,0.00371,47.703,0.354
287.087,-0.01744,0.00690,48.282,0.667
292.893,-0.01121,0.00955,48.882,0.934
298.699,-0.00561,0.01148,49.429,1.135
304.505,0.00106,0.01226,50.091,1.228
310.310,0.00732,0.01092,50.725,1.108
316.116,0.01399,0.00963,51.409,0.990
321.922,0.01954,0.00699,51.988,0.727
327.728,0.02496,0.00362,52.558,0.381
333.534,0.03044,-0.00103,53.139,-0.109
339.339,0.03496,-0.00614,53.619,-0.660
345.145,0.03892,-0.01196,54.033,-1.294
350.951,0.04207,-0.01832,54.353,-1.996
356.757,0.04334,-0.02551,54.456,-2.785
362.563,0.04426,-0.03345,54.503,-3.657
368.368,0.04376,-0.04001,54.393,-4.368
374.174,0.04273,-0.04767,54.205,-5.190
379.980,0.04096,-0.05518,53.927,-5.980
385.786,0.03747,-0.06209,53.463,-6.674
391.592,0.03417,-0.06832,53.022,-7.287
397.397,0.02874,-0.07453,52.357,-7.854
403.203,0.02317,-0.07958,51.697,-8.285
409.009,0.01752,-0.08420,51.042,-8.659
414.815,0.01058,-0.08799,50.277,-8.917
420.621,0.00348,-0.09028,49.532,-9.017
426.426,-0.00342,-0.09164,48.835,-9.027
432.232,-0.01093,-0.09174,48.111,-8.903
438.038,-0.01792,-0.09176,47.448,-8.785
443.844,-0.02509,-0.08941,46.816,-8.445
449.650,-0.03151,-0.08785,46.247,-8.197
455.455,-0.03811,-0.08431,45.698,-7.772
461.261,-0.04392,-0.07956,45.240,-7.258
467.067,-0.04915,-0.07474,44.834,-6.756
472.873,-0.05286,-0.06963,44.566,-6.254
478.679,-0.05582,-0.06349,44.372,-5.674
484.484,-0.05842,-0.05628,44.214,-5.009
490.290,-0.05908,-0.04992,44.212,-4.441
496.096,-0.05957,-0.04310,44.222,-3.833
501.902,-0.05882,-0.03619,44.335,-3.224
507.708,-0.05741,-0.02975,44.496,-2.659
513.514,-0.05430,-0.02329,44.804,-2.094
519.319,-0.05068,-0.01737,45.151,-1.573
525.125,-0.04571,-0.01237,45.615,-1.131
530.931,-0.04130,-0.00822,46.028,-0.758
536.737,-0.03486,-0.00429,46.629,-0.401
542.543,-0.02848,-0.00133,47.231,-0.126
548.348,-0.02165,-0.00006,47.881,-0.006
554.154,-0.01432,0.00021,48.588,0.020
559.960,-0.00724,0.00015,49.281,0.015
565.766,-0.00068,-0.00183,49.932,-0.183
571.572,0.00538,-0.00465,50.539,-0.470
577.377,0.01206,-0.00743,51.216,-0.762
583.183,0.01838,-0.01231,51.857,-1.277
588.989,0.02221,-0.01911,52.232,-1.998
594.795,0.02700,-0.02441,52.710,-2.576
600.601,0.02977,-0.03161,52.959,-3.354
606.406,0.03200,-0.03965,53.133,-4.224
612.212,0.03253,-0.04797,53.109,-5.112
618.018,0.03294,-0.05628,53.057,-5.998
623.824,0.03195,-0.06439,52.845,-6.841
629.630,0.02891,-0.07261,52.404,-7.657
635.435,0.02623,-0.07974,52.010,-8.353
641.241,0.02107,-0.08731,51.346,-9.039
647.047,0.01523,-0.09346,50.640,-9.552
652.853,0.00926,-0.09949,49.927,-10.034
658.659,0.00241,-0.10454,49.153,-10.391
664.464,-0.00537,-0.10918,48.307,-10.676
670.270,-0.01367,-0.11234,47.454,-10.800
676.076,-0.02171,-0.11374,46.677,-10.762
681.882,-0.02991,-0.11392,45.922,-10.610
687.688,-0.03758,-0.11410,45.226,-10.472
693.493,-0.04603,-0.11187,44.519,-10.109
699.299,-0.05414,-0.10947,43.852,-9.746
705.105,-0.06182,-0.10525,43.261,-9.245
710.911,-0.06853,-0.10046,42.766,-8.722
716.717,-0.07436,-0.09489,42.358,-8.157
722.523,-0.07959,-0.08831,42.012,-7.526
728.328,-0.08413,-0.08184,41.718,-6.923
734.134,-0.08718,-0.07411,41.556,-6.241
739.940,-0.08950,-0.06634,41.446,-5.568
745.746,-0.09051,-0.05790,41.442,-4.855
751.552,-0.08964,-0.05044,41.577,-4.239
757.357,-0.08899,-0.04203,41.692,-3.539
763.163,-0.08547,-0.03459,42.033,-2.933
768.969,-0.08232,-0.02747,42.335,-2.344
774.775,-0.07751,-0.02052,42.773,-1.767
780.581,-0.07206,-0.01446,43.261,-1.258
786.386,-0.06528,-0.00926,43.865,-0.816
792.192,-0.05780,-0.00539,44.534,-0.482
797.998,-0.05006,-0.00254,45.232,-0.230
803.804,-0.04227,-0.00015,45.944,-0.013
809.610,-0.03286,0.00015,46.819,0.014
815.415,-0.02446,-0.00060,47.612,-0.057
821.221,-0.01741,-0.00253,48.288,-0.244
827.027,-0.00877,-0.00582,49.127,-0.572
832.833,-0.00169,-0.00942,49.823,-0.939
838.639,0.00544,-0.01519,50.523,-1.535
844.444,0.01148,-0.02161,51.113,-2.211
850.250,0.01627,-0.02941,51.563,-3.037
856.056,0.01938,-0.03699,51.832,-3.841
861.862,0.02329,-0.04511,52.167,-4.719
867.668,0.02410,-0.05527,52.142,-5.785
873.473,0.02381,-0.06448,51.994,-6.737
879.279,0.02271,-0.07347,51.749,-7.650
885.085,0.02085,-0.08236,51.412,-8.530
890.891,0.01679,-0.09109,50.843,-9.343
896.697,0.01211,-0.09941,50.212,-10.084
902.503,0.00610,-0.10695,49.462,-10.703
908.308,-0.00086,-0.11447,48.624,-11.280
914.114,-0.00809,-0.12013,47.809,-11.656
919.920,-0.01655,-0.12496,46.908,-11.912
925.726,-0.02481,-0.12807,46.078,-12.007
931.532,-0.03380,-0.13051,45.213,-12.020
937.337,-0.04350,-0.13187,44.325,-11.920
943.143,-0.05297,-0.13213,43.497,-11.732
948.949,-0.06260,-0.13026,42.716,-11.366
954.755,-0.07181,-0.12784,41.991,-10.972
960.561,-0.07968,-0.12428,41.409,-10.522
966.366,-0.08757,-0.11884,40.863,-9.929
972.172,-0.09338,-0.11299,40.493,-9.352
977.978,-0.09893,-0.10620,40.155,-8.713
983.784,-0.10298,-0.09840,39.947,-8.024
989.590,-0.10636,-0.08955,39.798,-7.268
995.395,-0.10812,-0.08120,39.761,-6.578
1001.201,-0.10887,-0.07280,39.795,-5.895
1007.007,-0.10765,-0.06357,39.985,-5.165
1012.813,-0.10631,-0.05483,40.169,-4.469
1018.619,-0.10323,-0.04581,40.487,-3.757
1024.424,-0.09892,-0.03802,40.889,-3.145
1030.230,-0.09317,-0.03099,41.403,-2.591
1036.036,-0.08591,-0.02534,42.039,-2.148
1041.842,-0.07842,-0.01963,42.698,-1.688
1047.648,-0.06951,-0.01607,43.480,-1.405
1053.453,-0.06081,-0.01349,44.252,-1.199
1059.259,-0.05078,-0.01218,45.155,-1.103
1065.065,-0.04140,-0.01216,46.012,-1.121
1070.871,-0.03171,-0.01418,46.908,-1.332
1076.677,-0.02227,-0.01689,47.795,-1.616
1082.482,-0.01374,-0.02131,48.601,-2.073
1088.288,-0.00485,-0.02704,49.445,-2.676
1094.094,0.00235,-0.03414,50.118,-3.426
1099.900,0.00932,-0.04240,50.756,-4.312
1105.706,0.01376,-0.05172,51.117,-5.303
1111.512,0.01903,-0.06156,51.540,-6.373
1117.317,0.02125,-0.07208,51.620,-7.484
1123.123,0.02252,-0.08267,51.577,-8.590
1128.929,0.02244,-0.09397,51.359,-9.743
1134.735,0.01957,-0.10537,50.831,-10.837
1140.541,0.01699,-0.11571,50.338,-11.811
1146.346,0.01139,-0.12631,49.528,-12.716
1152.152,0.01135,-0.13451,49.310,-13.511
1157.958,-0.00103,-0.14587,47.820,-14.254
1163.764,-0.01018,-0.15431,46.735,-14.776
1169.570,-0.02016,-0.16182,45.618,-15.167
1175.375,-0.03036,-0.16801,44.540,-15.416
1181.181,-0.04129,-0.17292,43.457,-15.520
1186.987,-0.05275,-0.17638,42.396,-15.480
1192.793,-0.06508,-0.17715,41.362,-15.196
1198.599,-0.07657,-0.17809,40.414,-14.957
1204.404,-0.08839,-0.17744,39.500,-14.591
1210.210,-0.09977,-0.17467,38.691,-14.086
1216.016,-0.11017,-0.17089,37.992,-13.545
1221.822,-0.12029,-0.16575,37.350,-12.924
1227.628,-0.12927,-0.15949,36.821,-12.262
1233.433,-0.13690,-0.15176,36.419,-11.536
1239.239,-0.14437,-0.14324,36.036,-10.769
1245.045,-0.14842,-0.13432,35.901,-10.047
1250.851,-0.15217,-0.12473,35.787,-9.287
1256.657,-0.15402,-0.11448,35.809,-8.512
1262.462,-0.15372,-0.10443,35.972,-7.782
1268.268,-0.15379,-0.09373,36.103,-6.995
1274.074,-0.15025,-0.08518,36.463,-6.403
1279.880,-0.14686,-0.07584,36.815,-5.741
1285.686,-0.14079,-0.06626,37.364,-5.074
1291.491,-0.13444,-0.05911,37.911,-4.580
1297.297,-0.12625,-0.05160,38.604,-4.059
1303.103,-0.11730,-0.04698,39.343,-3.756
1308.909,-0.10848,-0.04388,40.072,-3.566
1314.715,-0.09816,-0.04103,40.935,-3.397
1320.521,-0.08697,-0.04058,41.871,-3.430
1326.326,-0.07668,-0.04115,42.742,-3.545
1332.132,-0.06603,-0.04432,43.644,-3.893
1337.938,-0.05567,-0.04969,44.517,-4.449
1343.744,-0.04639,-0.05603,45.293,-5.102
1349.550,-0.03812,-0.06353,45.969,-5.873
1355.355,-0.03093,-0.07264,46.521,-6.801
1361.161,-0.02432,-0.08325,46.985,-7.882
1366.967,-0.02028,-0.09415,47.185,-8.968
1372.773,-0.01762,-0.10587,47.216,-10.114
1378.579,-0.01707,-0.11877,46.998,-11.327
1384.384,-0.01708,-0.13138,46.707,-12.492
1390.190,-0.02066,-0.14465,46.047,-13.612
1395.996,-0.02493,-0.15764,45.313,-14.659
1401.802,-0.03062,-0.16982,44.464,-15.565
1407.608,-0.03701,-0.18113,43.577,-16.345
1413.413,-0.04644,-0.19179,42.457,-16.945
1419.219,-0.05667,-0.20137,41.320,-17.403
1425.025,-0.06822,-0.21033,40.119,-17.744
1430.831,-0.08093,-0.21734,38.918,-17.878
1436.637,-0.09412,-0.22415,37.717,-17.970
1442.442,-0.10865,-0.22762,36.552,-17.770
1448.248,-0.12261,-0.23036,35.479,-17.540
1454.054,-0.13692,-0.23114,34.466,-17.173
1459.860,-0.15069,-0.22936,33.583,-16.660
1465.666,-0.16466,-0.22673,32.727,-16.105
1471.471,-0.17771,-0.22253,31.983,-15.491
1477.277,-0.19023,-0.21673,31.321,-14.808
1483.083,-0.20162,-0.21006,30.753,-14.117
1488.889,-0.21249,-0.20173,30.253,-13.352
1494.695,-0.22177,-0.19236,29.869,-12.575
1500.501,-0.22946,-0.18255,29.582,-11.816
1506.306,-0.23551,-0.17212,29.397,-11.061
1512.112,-0.23997,-0.16101,29.310,-10.298
1517.918,-0.24205,-0.14986,29.357,-9.575
1523.724,-0.24383,-0.13823,29.416,-8.826
1529.530,-0.24368,-0.12702,29.577,-8.127
1535.335,-0.24157,-0.11560,29.851,-7.435
1541.141,-0.23823,-0.10484,30.186,-6.789
1546.947,-0.23262,-0.09549,30.644,-6.247
1552.753,-0.22578,-0.08685,31.173,-5.752
1558.559,-0.21773,-0.07917,31.775,-5.316
1564.364,-0.20900,-0.07399,32.404,-5.043
1570.170,-0.19930,-0.06923,33.105,-4.797
1575.976,-0.18895,-0.06769,33.836,-4.773
1581.782,-0.17810,-0.06593,34.617,-4.736
1587.588,-0.16816,-0.06798,35.316,-4.965
1593.393,-0.15779,-0.07023,36.055,-5.220
1599.199,-0.14793,-0.07499,36.743,-5.667
1605.005,-0.13865,-0.08220,37.368,-6.307
1610.811,-0.13145,-0.08939,37.834,-6.939
1616.617,-0.12536,-0.09828,38.188,-7.701
1622.422,-0.12000,-0.10978,38.436,-8.668
1628.228,-0.11636,-0.12196,38.520,-9.671
1634.034,-0.11553,-0.13411,38.366,-10.623
1639.840,-0.11728,-0.14658,37.989,-11.543
1645.646,-0.11925,-0.15921,37.573,-12.457
1651.451,-0.12546,-0.17136,36.839,-13.222
1657.257,-0.13131,-0.18426,36.109,-14.025
1663.063,-0.14104,-0.19468,35.160,-14.530
1668.869,-0.15091,-0.20590,34.193,-15.062
1674.675,-0.16213,-0.21573,33.182,-15.442
1680.480,-0.17584,-0.22337,32.083,-15.593
1686.286,-0.18853,-0.23010,31.098,-15.700
1692.092,-0.20602,-0.23378,29.914,-15.491
1697.898,-0.21902,-0.23789,29.024,-15.422
1703.704,-0.23537,-0.23738,28.065,-15.000
1709.510,-0.25258,-0.23755,27.063,-14.615
1715.315,-0.26657,-0.23506,26.325,-14.165
1721.121,-0.28234,-0.23168,25.518,-13.644
1726.927,-0.29737,-0.22508,24.827,-12.981
1732.733,-0.30985,-0.21859,24.276,-12.395
1738.539,-0.32425,-0.20953,23.670,-11.657
1744.344,-0.33464,-0.20120,23.262,-11.045
1750.150,-0.34645,-0.18985,22.821,-10.268
1755.956,-0.35446,-0.17808,22.576,-9.542
1761.762,-0.36290,-0.16734,22.283,-8.875
1767.568,-0.36882,-0.15415,22.141,-8.124
1773.373,-0.37297,-0.14138,22.071,-7.421
1779.179,-0.37653,-0.12769,22.027,-6.681
1784.985,-0.37784,-0.11446,22.080,-5.988
1790.791,-0.37680,-0.10041,22.248,-5.269
1796.597,-0.37524,-0.08795,22.418,-4.631
1802.402,-0.37106,-0.07609,22.713,-4.035
1808.208,-0.36607,-0.06442,23.040,-3.444
1814.014,-0.35956,-0.05485,23.434,-2.963
1819.820,-0.35180,-0.04526,23.893,-2.474
1825.626,-0.34316,-0.03738,24.394,-2.070
1831.431,-0.33347,-0.03110,24.951,-1.748
1837.237,-0.32330,-0.02735,25.536,-1.561
1843.043,-0.31347,-0.02548,26.106,-1.476
1848.849,-0.30281,-0.02587,26.727,-1.524
1854.655,-0.29220,-0.02580,27.356,-1.545
1860.460,-0.28186,-0.02897,27.972,-1.762
1866.266,-0.27276,-0.03388,28.514,-2.090
1872.072,-0.26496,-0.04005,28.975,-2.500
1877.878,-0.25785,-0.04683,29.391,-2.956
1883.684,-0.25311,-0.05649,29.640,-3.590
1889.489,-0.25025,-0.06687,29.756,-4.266
1895.295,-0.24924,-0.07851,29.734,-5.011
1901.101,-0.25058,-0.08910,29.559,-5.668
1906.907,-0.25349,-0.10065,29.266,-6.365
1912.713,-0.25914,-0.11083,28.809,-6.937
1918.519,-0.26827,-0.12029,28.145,-7.412
1924.324,-0.27623,-0.13079,27.541,-7.947
1930.130,-0.28792,-0.13881,26.753,-8.272
1935.936,-0.30067,-0.14497,25.940,-8.464
1941.742,-0.31431,-0.14898,25.120,-8.515
1947.548,-0.32755,-0.15285,24.341,-8.560
1953.353,-0.34128,-0.15664,23.553,-8.590
1959.159,-0.36283,-0.15492,22.440,-8.235
1964.965,-0.37305,-0.15134,21.956,-7.931
1970.771,-0.38883,-0.14797,21.195,-7.585
1976.577,-0.40296,-0.14248,20.550,-7.165
1982.382,-0.41665,-0.13591,19.945,-6.711
1988.188,-0.43264,-0.12467,19.277,-6.028
1993.994,-0.44470,-0.11547,18.779,-5.497
1999.800,-0.45418,-0.10708,18.396,-5.036
2005.606,-0.46540,-0.09318,17.966,-4.322
2011.411,-0.47438,-0.07948,17.628,-3.646
2017.217,-0.48268,-0.06682,17.309,-3.033
2023.023,-0.48832,-0.05139,17.110,-2.317
2028.829,-0.49258,-0.03764,16.956,-1.689
2034.635,-0.49622,-0.02413,16.818,-1.078
2040.440,-0.49703,-0.00822,16.797,-0.367
2046.246,-0.49679,0.00654,16.808,0.292
2052.052,-0.49516,0.02068,16.870,0.925
2057.858,-0.49252,0.03496,16.964,1.569
2063.664,-0.48783,0.04816,17.142,2.173
2069.469,-0.48151,0.06023,17.387,2.740
2075.275,-0.47490,0.07189,17.640,3.297
2081.081,-0.46629,0.08390,17.977,3.890
2086.887,-0.45765,0.09348,18.323,4.382
2092.693,-0.44728,0.10059,18.763,4.779
2098.498,-0.43721,0.10803,19.188,5.201
2104.304,-0.42615,0.11249,19.685,5.497
2110.110,-0.41388,0.11676,20.248,5.801
2115.916,-0.40408,0.11659,20.733,5.874
2121.722,-0.39181,0.11875,21.330,6.086
2127.528,-0.38199,0.11600,21.853,6.031
2133.333,-0.37268,0.11188,22.369,5.898
2139.139,-0.36456,0.10791,22.828,5.759
2144.945,-0.35593,0.10251,23.331,5.544
2150.751,-0.35119,0.09384,23.654,5.115
2156.557,-0.34756,0.08541,23.911,4.685
2162.362,-0.34532,0.07751,24.086,4.269
2168.168,-0.34578,0.06785,24.118,3.737
2173.974,-0.34741,0.06083,24.066,3.344
2179.780,-0.35248,0.05014,23.837,2.738
2185.586,-0.35914,0.04169,23.507,2.255
2191.391,-0.36630,0.03875,23.131,2.074
2197.197,-0.37707,0.03183,22.579,1.678
2203.003,-0.38696,0.02799,22.071,1.454
2208.809,-0.39890,0.02789,21.456,1.425
2214.615,-0.41023,0.02485,20.888,1.249
2220.420,-0.42405,0.02921,20.193,1.440
2226.226,-0.43678,0.03258,19.565,1.577
2232.032,-0.44995,0.03709,18.923,1.763
2237.838,-0.46128,0.04640,18.364,2.171
2243.644,-0.47283,0.05405,17.805,2.488
2249.449,-0.48519,0.06425,17.206,2.907
2255.255,-0.49492,0.07839,16.710,3.498
2261.061,-0.50367,0.08867,16.274,3.908
2266.867,-0.51042,0.10070,15.914,4.395
2272.673,-0.51643,0.11504,15.567,4.974
2278.478,-0.52191,0.12865,15.241,5.515
2284.284,-0.52417,0.14362,15.032,6.128
2290.090,-0.52652,0.15603,14.831,6.627
2295.896,-0.52585,0.16973,14.736,7.201
2301.702,-0.52404,0.18430,14.669,7.820
2307.508,-0.52196,0.19821,14.609,8.414
2313.313,-0.51959,0.20853,14.591,8.864
2319.119,-0.51575,0.22324,14.573,9.510
2324.925,-0.50995,0.23636,14.643,10.119
2330.731,-0.50246,0.24751,14.799,10.675
2336.537,-0.49404,0.25846,14.988,11.243
2342.342,-0.48503,0.26978,15.188,11.842
2348.148,-0.47585,0.27932,15.415,12.381
2353.954,-0.46404,0.28625,15.789,12.863
2359.760,-0.45427,0.29473,16.050,13.386
2365.566,-0.44303,0.30079,16.413,13.843
2371.371,-0.43236,0.30544,16.778,14.240
2377.177,-0.42072,0.30949,17.198,14.638
2382.983,-0.40725,0.31056,17.761,14.954
2388.789,-0.39657,0.30889,18.264,15.099
2394.595,-0.38555,0.30826,18.770,15.300
2400.400,-0.37504,0.30687,19.275,15.460
2406.206,-0.36387,0.30306,19.871,15.526
2412.012,-0.35654,0.29705,20.344,15.404
2417.818,-0.35021,0.29020,20.792,15.215
2423.624,-0.34350,0.28417,21.245,15.070
2429.429,-0.34153,0.27537,21.528,14.682
2435.235,-0.33934,0.26654,21.819,14.293
2441.041,-0.33600,0.26142,22.090,14.106
2446.847,-0.33670,0.25552,22.174,13.797
2452.653,-0.34143,0.24741,22.095,13.297
2458.458,-0.34674,0.24215,21.928,12.933
2464.264,-0.35127,0.23845,21.770,12.665
2470.070,-0.36143,0.23415,21.342,12.270
2475.876,-0.36927,0.23616,20.922,12.232
2481.682,-0.37823,0.23802,20.455,12.168
2487.487,-0.38882,0.24041,19.909,12.101
2493.293,-0.39835,0.24386,19.402,12.103
2499.099,-0.41238,0.25102,18.634,12.198
2504.905,-0.41669,0.25761,18.328,12.425
2510.711,-0.42483,0.26728,17.798,12.718
2516.517,-0.43109,0.27789,17.338,13.076
2522.322,-0.43942,0.28917,16.777,13.415
2528.128,-0.44517,0.30140,16.312,13.830
2533.934,-0.44885,0.31148,15.971,14.183
2539.740,-0.45261,0.32720,15.518,14.758
2545.546,-0.45308,0.33979,15.251,15.258
2551.351,-0.45271,0.35381,14.982,15.827
2557.157,-0.45316,0.36382,14.756,16.213
2562.963,-0.44957,0.37690,14.617,16.801
2568.769,-0.44713,0.38944,14.436,17.340
2574.575,-0.44125,0.40039,14.413,17.894
2580.380,-0.43536,0.41152,14.377,18.457
2586.186,-0.42879,0.42100,14.398,18.975
2591.992,-0.41793,0.43431,14.476,19.749
2597.798,-0.40781,0.44200,14.659,20.300
2603.604,-0.40044,0.44981,14.728,20.790
2609.409,-0.38981,0.45888,14.880,21.421
2615.215,-0.38011,0.46294,15.130,21.847
2621.021,-0.36812,0.47175,15.326,22.526
2626.827,-0.35723,0.47529,15.631,22.983
2632.633,-0.34563,0.47936,15.946,23.492
2638.438,-0.33277,0.48009,16.414,23.924
2644.244,-0.32206,0.48169,16.775,24.330
2650.050,-0.31166,0.48037,17.223,24.619
2655.856,-0.30212,0.48053,17.593,24.944
2661.662,-0.28944,0.47847,18.167,25.295
2667.467,-0.27867,0.47432,18.747,25.502
2673.273,-0.26945,0.46982,19.284,25.642
2679.079,-0.26042,0.46340,19.892,25.696
2684.885,-0.25147,0.45698,20.505,25.745
2690.691,-0.24375,0.44935,21.119,25.694
2696.496,-0.24065,0.44080,21.568,25.428
2702.302,-0.23516,0.43243,22.121,25.250
2708.108,-0.23183,0.42668,22.484,25.107
2713.914,-0.22966,0.42003,22.826,24.876
2719.720,-0.23258,0.41146,22.996,24.368
2725.526,-0.23493,0.40666,23.055,24.056
2731.331,-0.23759,0.40204,23.089,23.744
2737.137,-0.24147,0.40072,22.949,23.547
2742.943,-0.24720,0.39863,22.748,23.252
2748.749,-0.25253,0.39902,22.482,23.091
2754.555,-0.26139,0.39995,22.036,22.840
2760.360,-0.26563,0.40639,21.627,22.999
2766.166,-0.27530,0.40844,21.118,22.777
2771.972,-0.28116,0.41571,20.619,22.914
2777.778,-0.28613,0.42534,20.087,23.179
2783.584,-0.29296,0.43206,19.573,23.249
2789.389,-0.29449,0.44308,19.149,23.669
2795.195,-0.29863,0.45248,18.668,23.926
2801.001,-0.30149,0.46273,18.213,24.252
2806.807,-0.30340,0.47289,17.798,24.598
2812.613,-0.30451,0.48523,17.340,25.048
2818.418,-0.30039,0.49463,17.180,25.554
2824.224,-0.29750,0.50511,16.928,26.055
2830.030,-0.29454,0.51404,16.726,26.496
2835.836,-0.28846,0.52381,16.604,27.077
2841.642,-0.28435,0.53045,16.515,27.471
2847.447,-0.27453,0.54066,16.495,28.207
2853.253,-0.26681,0.54853,16.475,28.784
2859.059,-0.25683,0.55643,16.526,29.452
2864.865,-0.24916,0.56068,16.630,29.907
2870.671,-0.24037,0.56587,16.732,30.444
2876.476,-0.22902,0.57004,16.961,31.058
2882.282,-0.21883,0.57092,17.283,31.516
2888.088,-0.20576,0.57888,17.400,32.358
2893.894,-0.19930,0.58029,17.564,32.692
2899.700,-0.18856,0.57401,18.223,32.948
2905.506,-0.17898,0.57948,18.315,33.578
2911.311,-0.16836,0.57332,18.980,33.849
2917.117,-0.15878,0.57030,19.470,34.190
2922.923,-0.14866,0.56837,19.935,34.605
2928.729,-0.13810,0.56410,20.537,34.962
2934.535,-0.12958,0.55626,21.250,35.087
2940.340,-0.12071,0.55057,21.881,35.313
2946.146,-0.11506,0.54310,22.486,35.305
2951.952,-0.10562,0.53675,23.196,35.535
2957.758,-0.10136,0.52870,23.792,35.423
2963.564,-0.09679,0.52118,24.380,35.344
2969.369,-0.09604,0.51400,24.789,35.073
2975.175,-0.08820,0.50547,25.586,35.110
2980.981,-0.09157,0.49519,25.976,34.466
2986.787,-0.08751,0.48772,26.555,34.333
2992.593,-0.08903,0.48194,26.787,33.981
2998.398,-0.08890,0.47607,27.099,33.708
3004.204,-0.09586,0.46945,27.103,33.029
3010.010,-0.09813,0.47159,26.884,33.018
3015.816,-0.10393,0.47232,26.569,32.760
3021.622,-0.10711,0.46888,26.588,32.436
3027.427,-0.11443,0.47371,26.000,32.305
3033.233,-0.11918,0.47368,25.777,32.072
3039.039,-0.12531,0.47632,25.362,31.900
3044.845,-0.12587,0.48490,24.922,32.268
3050.651,-0.13062,0.49211,24.360,32.366
3056.456,-0.13445,0.49885,23.866,32.481
3062.262,-0.13680,0.50594,23.423,32.678
3068.068,-0.13545,0.51724,22.936,33.225
