! Created with skrf 1.9.0 (http://scikit-rf.org).
# MHz S RI R 50.0 
!freq ReS11 ImS11
100.0 -0.9961250308837728 0.09543440157584658
105.9 -0.9951509687619056 0.10259412169684747
111.8 -0.9947259995472766 0.10697868779397227
117.7 -0.9938163456031063 0.11327721718308516
123.6 -0.9923939321619444 0.1198544513757875
129.5 -0.9926980598061892 0.12390348067262666
135.4 -0.9910691221895364 0.1297683161056499
141.3 -0.9897457875707188 0.13691499687026507
147.2 -0.9910660347403448 0.14231492619300853
153.1 -0.9903489131142691 0.1468654483106801
159.0 -0.9888817401582091 0.1529750563208249
164.9 -0.9874182306998768 0.15867869545972016
170.8 -0.9853886763751145 0.16528893410920448
176.7 -0.9856369446176771 0.16999038862010496
182.6 -0.9849196306685339 0.1765941264063303
188.5 -0.9831342234808779 0.1818637315404329
194.4 -0.9841897312363161 0.18702029523646035
200.3 -0.9816865323323755 0.19236258185481853
206.2 -0.9812855316968956 0.1984275813630413
212.1 -0.9799929711698596 0.202304638447152
218.0 -0.9788825652379697 0.20872911701467348
223.9 -0.9777119282550262 0.2153314467213403
229.8 -0.9774158919523147 0.2203541606297572
235.7 -0.9754828044611356 0.22642819511783893
241.6 -0.9743701089633751 0.2321186307254155
247.5 -0.972244205053293 0.23662185767363939
253.4 -0.9696268772705735 0.24247986509412964
259.3 -0.9709035652773239 0.2471171074092312
265.2 -0.9673033438283901 0.2529771872148394
271.1 -0.96581473194383 0.258516738752991
277.0 -0.9637086742303547 0.26624787457438076
282.9 -0.965027250998085 0.2700875009584495
288.8 -0.9621738389962227 0.2747983504600901
294.7 -0.9588062298738329 0.27942495762496594
300.6 -0.9575199042542288 0.28699033274922103
306.5 -0.9560515653972642 0.29046614633557366
312.4 -0.956939651983159 0.29543833222273247
318.3 -0.9536435653174631 0.3013897908357016
324.2 -0.9499434969940289 0.3061593620341964
330.1 -0.9483109065068747 0.3121866382433084
336.0 -0.9479873461060722 0.3163923455525844
341.9 -0.9447408069182885 0.3215203310045602
347.8 -0.9435493443442272 0.3254247042264157
353.7 -0.9410095775360124 0.33243615284790223
359.6 -0.9397765935893758 0.33724233870980497
365.5 -0.9369782989069647 0.3424522878691222
371.4 -0.9356084146914883 0.3464795738442629
377.3 -0.9328325776826969 0.3529368296140072
383.2 -0.9309819364088976 0.35672016285953934
389.1 -0.9270459676812544 0.36279053214209117
395.0 -0.9249662296450855 0.36857091005114856
400.9 -0.9233668953181591 0.3742971023327348
406.8 -0.9213089644640362 0.3784715947541893
412.7 -0.9201597239798687 0.3833604774065506
418.6 -0.9159056311572696 0.3893666505292068
424.5 -0.9124265053193632 0.3935360167042644
430.4 -0.9108661601163502 0.39790963173353394
436.3 -0.9073845485805144 0.4037469066927243
442.2 -0.9085640576611324 0.40836413896521245
448.1 -0.9042294002437803 0.4128541993453739
454.0 -0.9040479950141372 0.4172402266254453
459.9 -0.9007957434109294 0.42311389110583264
465.8 -0.8963808839396035 0.427447593870629
471.7 -0.8941941511728938 0.43294891060255675
477.6 -0.8936167582771338 0.4372963386279071
483.5 -0.8916843365035844 0.44296588459695174
489.4 -0.8885809572835845 0.4457689158418264
495.3 -0.8849743242335492 0.4516668346215203
501.2 -0.8828309053531151 0.4566389666123102
507.1 -0.8829215596029215 0.46033281405198817
513.0 -0.8777543735971296 0.4643450982419833
518.9 -0.8769902906046086 0.46834683520849407
524.8 -0.8756175523074662 0.4749231097951569
530.7 -0.8727219812037277 0.4789232913336908
536.6 -0.868622713969641 0.4808011802649002
542.5 -0.863932988767985 0.4865027437893374
548.4 -0.8640570112784639 0.49253730552072644
554.3 -0.8599966501627908 0.49714004924906335
560.2 -0.8578861707758288 0.5012916266486942
566.1 -0.8555820599494984 0.5036874252325931
572.0 -0.854394756081869 0.5093980928898713
577.9 -0.8507830348306583 0.5152002157637994
583.8 -0.8486360374598684 0.5190550603991679
589.7 -0.8443479344890561 0.5204499596899338
595.6 -0.8398406445711696 0.5273536121773538
601.5 -0.8392369040243027 0.5301731021205449
607.4 -0.835393583558101 0.5328778604152178
613.3 -0.8336847424147975 0.5388104965060498
619.2 -0.8290155535174506 0.5433591794006506
625.1 -0.8275060910560486 0.5455193256198483
631.0 -0.8242572261322596 0.5489538622423198
636.9 -0.8189198644381628 0.5532484786998743
642.8 -0.8182660151862862 0.5570064887959554
648.7 -0.8155545953608367 0.5615802010986654
654.6 -0.8091133671828601 0.5653359492941104
660.5 -0.8064159093275228 0.5689869745060452
666.4 -0.802920592272817 0.5752268853161024
672.3 -0.8049753329348995 0.5814457390656342
678.2 -0.7997216640247561 0.584957085003673
684.1 -0.7964561707439055 0.5874698948400464
690.0 -0.7933348444656975 0.5924063628836772
695.9 -0.7913453779197591 0.598191464284265
701.8 -0.7854045280913723 0.5982326211676305
707.7 -0.7811003548697633 0.6059139047465651
713.6 -0.7784008155631141 0.607803642404453
719.5 -0.775471373034615 0.6106915437786392
725.4 -0.771554992967463 0.6149216826495674
731.3 -0.7677952322224463 0.6184594806892397
737.2 -0.7632780179426392 0.6216232099252851
743.1 -0.7626912085772899 0.6251849915175589
749.0 -0.7593992349513524 0.6279168330091064
754.9 -0.7553882632198855 0.6334697376304599
760.8 -0.7524561962614377 0.63795080877873
766.7 -0.7485667027772593 0.639806356385849
772.6 -0.7448158605095002 0.6463960413648874
778.5 -0.7426830870420825 0.6513775839109782
784.4 -0.7408780570140222 0.6528274969742394
790.3 -0.7396907923272324 0.6571321699591167
796.2 -0.7369003996268224 0.6586328325020634
802.1 -0.7304986327904589 0.6617982925969634
808.0 -0.7260661613081216 0.6631756453691835
813.9 -0.7240851344576991 0.6759784731926096
819.8 -0.718010756589038 0.6710531438805827
825.7 -0.7145392715453636 0.6745223971238771
831.6 -0.7132014723083941 0.6783225239543248
837.5 -0.7074516232909919 0.6860681839718799
843.4 -0.7058087792397126 0.6890293062818573
849.3 -0.7032753241569064 0.6884897911137934
855.2 -0.7015433706764389 0.6951721424583298
861.1 -0.6972688203706121 0.698157626705063
867.0 -0.6943990944381053 0.6984355180827188
872.9 -0.6903345834956162 0.7035343331676589
878.8 -0.6876378641411955 0.7064810144265121
884.7 -0.6826094293196615 0.7075977785320564
890.6 -0.6772476101402082 0.7096773949627625
896.5 -0.6761184954603632 0.7127226037175686
902.4 -0.6725429529533261 0.7125483997286746
908.3 -0.6660540511339712 0.7183280062624033
914.2 -0.6590901499338223 0.7179650222340698
920.1 -0.6596989359515364 0.724445446758482
926.0 -0.6551450358313992 0.7283271874425419
931.9 -0.6515814493179848 0.7304351598805041
937.8 -0.6482667816400212 0.7367466560851206
943.7 -0.6483628031222198 0.7386012355810001
949.6 -0.6422277873539914 0.7408298461434261
955.5 -0.6426198495325469 0.7446888959201069
961.4 -0.635178717898471 0.7480616124471748
967.3 -0.6311989022260174 0.7481834391437431
973.2 -0.6272071738810429 0.753970057136074
979.1 -0.6228590420634764 0.7536424836498121
985.0 -0.6191676865709058 0.7576948844845295
990.9 -0.6181313978530195 0.7578584481102448
996.8 -0.6109438921046638 0.7628713909310871
1002.7 -0.6091418129130249 0.7638882531643956
1008.6 -0.6046856105694361 0.7629242516637423
1014.5 -0.5994376507280079 0.7698042437520953
1020.4 -0.6005082908988798 0.7687259882888026
1026.3 -0.5928778316109687 0.7771673870093811
1032.2 -0.5939103453210508 0.7790339850452495
1038.1 -0.589844010536207 0.7814600750505915
1044.0 -0.5855531928666556 0.7876734788710594
1049.9 -0.5852315722519308 0.7861758107225848
1055.8 -0.57987762633378 0.7880019401158879
1061.7 -0.5741337407833945 0.7899111028057588
1067.6 -0.5734544254252534 0.7915391309611811
1073.5 -0.5652686027220588 0.7925067878830385
1079.4 -0.5636679404850533 0.7980004461263321
1085.3 -0.558721711765624 0.796307214746542
1091.2 -0.5552628247028764 0.8024470887213327
1097.1 -0.553272589174307 0.804352065602843
1103.0 -0.5483533974911934 0.8051646981893442
1108.9 -0.5443469090098384 0.807968727360839
1114.8 -0.5379097992380809 0.811699976165284
1120.7 -0.53296544536259 0.814436116958797
1126.6 -0.5300292201812136 0.8177364665673987
1132.5 -0.5304493101968237 0.8185122550973802
1138.4 -0.5257094159950432 0.8208942940689721
1144.3 -0.5179441054784495 0.8232546676589292
1150.2 -0.5164195394275157 0.8238780800690814
1156.1 -0.5118159515460621 0.8251982177237839
1162.0 -0.5081535007291282 0.8234237037788472
1167.9 -0.5091682415328187 0.8264831910760055
1173.8 -0.5015865751059922 0.8269376965872424
1179.7 -0.49597224610945473 0.8294285285498264
1185.6 -0.49321230799306054 0.8307600304831633
1191.5 -0.49080129124652444 0.8311831656700915
1197.4 -0.487496781189746 0.8338119900304853
1203.3 -0.48153594514193804 0.8420177175619825
1209.2 -0.4770071222031389 0.8383810555666885
1215.1 -0.47174623520806463 0.8434656888954467
1221.0 -0.46920996161160233 0.8432980482092957
1226.9 -0.46713549466202575 0.8456902050357888
1232.8 -0.4632748815009145 0.8449786965025752
1238.7 -0.4587600930570047 0.8496554533143296
1244.6 -0.4556469932351204 0.8510675264263613
1250.5 -0.4531331522338841 0.8530652161225453
1256.4 -0.4493633924237869 0.8525901381336516
1262.3 -0.4465868444038837 0.8558227121253095
1268.2 -0.4438916734018487 0.8553033000453821
1274.1 -0.4414613420430702 0.8569414611257876
1280.0 -0.4343134617482819 0.8602272374885453
1285.9 -0.4330175979485694 0.8632939109201919
1291.8 -0.4276048160002448 0.8649702847417543
1297.7 -0.42418481586025886 0.8671902453053871
1303.6 -0.42218067679140453 0.8686110506356959
1309.5 -0.4219758481272578 0.8712445629936668
1315.4 -0.4153968748264319 0.8786773546211878
1321.3 -0.41708175712101764 0.877124024297066
1327.2 -0.4104835591790715 0.879089873205697
1333.1 -0.4045594935156949 0.8817282227758315
1339.0 -0.40233038301120166 0.8829314937756437
1344.9 -0.3989447016128435 0.8842159156456808
1350.8 -0.3924296779180004 0.8808414943679078
1356.7 -0.38818670162375457 0.8850691768270394
1362.6 -0.38881154519943434 0.8829028472958922
1368.5 -0.3795882211785277 0.8824939170614176
1374.4 -0.38169790013039656 0.8843797298471224
1380.3 -0.37560136542586947 0.887599518724451
1386.2 -0.3687871115632642 0.8870303791799128
1392.1 -0.36598870611622 0.8888630325692822
1398.0 -0.35782853402396486 0.8927753121655981
1403.9 -0.3585861620610386 0.8912432914085517
1409.8 -0.3546672447707257 0.8938832218085571
1415.7 -0.3490124072012068 0.8985883098601186
1421.6 -0.3453957894254022 0.8945038941207439
1427.5 -0.3413362127822883 0.8973552435655558
1433.4 -0.3378079581188012 0.8961286346893603
1439.3 -0.3335860274213202 0.8982111875966874
1445.2 -0.33629022361695887 0.9000038577666009
1451.1 -0.3320925627359248 0.904360234347468
1457.0 -0.3237588566598404 0.9015296656710698
1462.9 -0.31823789273237124 0.9024750702115445
1468.8 -0.31367802275974166 0.9038368399628512
1474.7 -0.30920531120103373 0.9043274479942802
1480.6 -0.3041241237350674 0.9064669741991449
1486.5 -0.3025267394487225 0.9060183575883966
1492.4 -0.29898607432064017 0.910405402752393
1498.3 -0.2943018838413861 0.9105163907004947
1504.2 -0.29246023958411743 0.9131648187754839
1510.1 -0.28814920505743785 0.9143793244754549
1516.0 -0.2842921325662729 0.9155996876988024
1521.9 -0.2797081237745752 0.9179353444691419
1527.8 -0.2784755672068447 0.916040310504644
1533.7 -0.27577934170471274 0.9188854019048356
1539.6 -0.2728308418269899 0.9210347255265754
1545.5 -0.26787161705461293 0.921725719306741
1551.4 -0.2637868394222879 0.9225491889931011
1557.3 -0.2571792074631038 0.9258578739653847
1563.2 -0.26072780157718006 0.9261872420797713
1569.1 -0.2544168801684005 0.9258772211766231
1575.0 -0.2501592379155397 0.9271854856781188
1580.9 -0.24606343093890104 0.9274897993952697
1586.8 -0.24108742065870947 0.9265152239137738
1592.7 -0.2376840564014404 0.9304618467824701
1598.6 -0.23687151052289698 0.9287828881116895
1604.5 -0.23097332990048983 0.9297283030094289
1610.4 -0.23005530848602385 0.9283753648721578
1616.3 -0.22488879359140296 0.9291561370642695
1622.2 -0.22332155629364348 0.9312052437242718
1628.1 -0.22013620813134663 0.9317702350346531
1634.0 -0.21769959996165641 0.9296628640667272
1639.9 -0.21438205677475936 0.9276438068417564
1645.8 -0.20866951092062794 0.9317745697842956
1651.7 -0.2029258956529335 0.9287082409749392
1657.6 -0.20011313431288144 0.9311637302917325
1663.5 -0.19768676617462258 0.9353343815752454
1669.4 -0.1889711369286926 0.9340608202249313
1675.3 -0.18945968361486182 0.9328784043961623
1681.2 -0.18361375609304814 0.9322586767188495
1687.1 -0.1794207492854659 0.9331905789672508
1693.0 -0.1755337868373376 0.9336209382978438
1698.9 -0.17048599440983012 0.9349810606504044
1704.8 -0.16875693549335924 0.9359457391706885
1710.7 -0.1621180950042045 0.9335175456993688
1716.6 -0.15754150891195848 0.9343415540610803
1722.5 -0.1519804821795302 0.9340951266415026
1728.4 -0.15057845309509463 0.9374036693708758
1734.3 -0.14743552844366617 0.9342143657549072
1740.2 -0.13761091046018736 0.9377531580235032
1746.1 -0.13686350315380913 0.9399542491806041
1752.0 -0.13007546062057937 0.9423528285006498
1757.9 -0.12519982690240897 0.9409642277882336
1763.8 -0.12279328916633217 0.9391257215149124
1769.7 -0.11840594560911827 0.9397853094413023
1775.6 -0.11229606140807041 0.9452176442566742
1781.5 -0.11556430929164951 0.9443393774280638
1787.4 -0.10603068388042573 0.9478821152335879
1793.3 -0.1044583410972775 0.9441326064379125
1799.2 -0.10241763730033988 0.9437989121621194
1805.1 -0.09918515746554461 0.9509732259011509
1811.0 -0.09447351940373912 0.9491075309407825
1816.9 -0.09080229229261749 0.9500468876580942
1822.8 -0.0918283905148237 0.9474946723356379
1828.7 -0.08465731811540855 0.9483380495524703
1834.6 -0.08231502633949098 0.9475975672729652
1840.5 -0.07852468415143228 0.9483661444323735
1846.4 -0.07328039665311034 0.9488786507295054
1852.3 -0.073885752810686 0.9437822752556684
1858.2 -0.0704844326856588 0.9496565586113599
1864.1 -0.06755376542065844 0.9479485345406408
1870.0 -0.06307501270703485 0.946327972867153
1875.9 -0.06531909813333232 0.94620267689107
1881.8 -0.05535219931456574 0.9512700647769312
1887.7 -0.049555131460833124 0.9482201117842016
1893.6 -0.0512770683510937 0.9500273907271728
1899.5 -0.048042743440334094 0.9443363407669334
1905.4 -0.044702312144545404 0.9431930606398587
1911.3 -0.034829643802798724 0.9414286749295725
1917.2 -0.03731667599136211 0.9411592996597652
1923.1 -0.037277268025014035 0.9429639828368858
1929.0 -0.028876508661788373 0.9382392733865266
1934.9 -0.021964751419724055 0.9417886269642721
1940.8 -0.01724458330375853 0.9376726484346946
1946.7 -0.01626239222064337 0.9338464274442787
1952.6 -0.009550094973423798 0.9363790035712799
1958.5 -0.002870386677756823 0.9357851215483733
1964.4 0.0035954990301452472 0.9318318129098874
1970.3 0.006414701488326027 0.933303992546665
1976.2 0.010038733684722002 0.9377219653660622
1982.1 0.014541977604172897 0.9346541866040591
1988.0 0.02337613484585013 0.9317873970328189
1993.9 0.025281644261963127 0.9322873997275499
1999.8 0.036178867925181234 0.9303742127218635
2005.7 0.03970589284591736 0.9322155017826166
2011.6 0.04389776589885271 0.9326402010403302
2017.5 0.04858043395927544 0.9298814029455056
2023.4 0.0496483574407658 0.9352795429009731
2029.3 0.053648365849892785 0.9341943140831679
2035.2 0.0605525453327288 0.9354313563070282
2041.1 0.06289316078877413 0.9343505166249799
2047.0 0.07302497069953987 0.9406589558637384
2052.9 0.07433859645669139 0.9362397875326903
2058.8 0.08053307242038425 0.9386266207109153
2064.7 0.083006560938455 0.9394918813670342
2070.6 0.0898381276280151 0.9403940079031567
2076.5 0.08713877296217251 0.9382800947190106
2082.4 0.09819106058705891 0.9399092522480864
2088.3 0.10087525870919467 0.9416654361335204
2094.2 0.09892058616594569 0.9412679752093911
2100.1 0.10489750160635035 0.9380905544982155
2106.0 0.11344938904800218 0.9398647424003301
2111.9 0.11255717424188522 0.9412756699140802
2117.8 0.11430418061211496 0.9390913876618247
2123.7 0.12195992791387182 0.9393252884244291
2129.6 0.1248082498395902 0.9388002220181481
2135.5 0.1299993956314652 0.9375874564397851
2141.4 0.1362659693317458 0.9351280325596293
2147.3 0.13024402524793813 0.9350687264184449
2153.2 0.1381551995656609 0.9315439827449508
2159.1 0.1437327471644708 0.9358261200885477
2165.0 0.14371291683211243 0.9336374979880445
2170.9 0.1433244646249277 0.9305098928645953
2176.8 0.15315919732593353 0.9255939885653522
2182.7 0.1602742517105798 0.9272083801697931
2188.6 0.16044120343619656 0.9265109165154802
2194.5 0.16806341702207045 0.9184566981932316
2200.4 0.16461041510705063 0.9191174929012541
2206.3 0.17741151118686707 0.9132527978977367
2212.2 0.17374999440506925 0.9131831923679261
2218.1 0.18321011460692094 0.9070580464232226
2224.0 0.18620070406027675 0.9045807984467065
2229.9 0.19401789870555358 0.9042621279539921
2235.8 0.1982025965093035 0.8950587147324094
2241.7 0.21070881702940078 0.894563565338071
2247.6 0.21391106238042346 0.893752169847079
2253.5 0.2177997963435852 0.8917412669282448
2259.4 0.2320095170917874 0.8943964285497653
2265.3 0.2347164685202608 0.8892264053803447
2271.2 0.2449958366935279 0.8857653169541652
2277.1 0.24855020052717758 0.8849519508797845
2283.0 0.254849441102449 0.8826845294134874
2288.9 0.2637719504260848 0.8858017038909382
2294.8 0.2692552260933397 0.884373228312924
2300.7 0.2744454785167246 0.8809466526781301
2306.6 0.2791461870770622 0.8827343667611689
2312.5 0.2831602779119083 0.8837135196097071
2318.4 0.2922238248964664 0.8818928989024994
2324.3 0.29763121246412194 0.8830928840633975
2330.2 0.30592199147685095 0.8780842292915041
2336.1 0.31214062175946405 0.879314369686889
2342.0 0.3093061530779296 0.8810558043109391
2347.9 0.31762136432143234 0.8787608169681613
2353.8 0.32668939394811936 0.8768186440054943
2359.7 0.33018335154822576 0.8795227608466331
2365.6 0.3380927168361154 0.8741363482907373
2371.5 0.3383352366065296 0.8760610824769476
2377.4 0.3416079215949916 0.874654361684031
2383.3 0.34781860275911375 0.8745498482946719
2389.2 0.3558819835065379 0.8702793713117095
2395.1 0.3525266312469171 0.8647170889608656
2401.0 0.3626830200214775 0.8644172237522305
2406.9 0.3671453211403253 0.8642608654917049
2412.8 0.3677297622123397 0.8617338866101734
2418.7 0.3692424192174069 0.8543687775248054
2424.6 0.373214651650088 0.8491193163620839
2430.5 0.37332944150464453 0.8530926553926229
2436.4 0.39080069054851096 0.850567671545679
2442.3 0.3945217180028889 0.8429280258768661
2448.2 0.40371767505133066 0.836609689736473
2454.1 0.4109901688344953 0.8377084487627103
2460.0 0.4106977956225994 0.8310341678537311
2465.9 0.4078266087014754 0.8267848515132898
2471.8 0.41658540921950526 0.8200258740943384
2477.7 0.4194261319198825 0.8145335766562334
2483.6 0.4221133841729939 0.8080191360275812
2489.5 0.43618544582828117 0.8000084003079854
2495.4 0.4385660624575508 0.7984061145123825
2501.3 0.4462038150098545 0.7907199943328141
2507.2 0.4534230235744088 0.7869807182396347
2513.1 0.4629731533316184 0.7755192998417784
2519.0 0.46664512487955817 0.7693104480878239
2524.9 0.47678208661586535 0.7637109448366439
2530.8 0.4853378272013133 0.7599776527399796
2536.7 0.49593874607381977 0.7482641830173825
2542.6 0.5036602021623386 0.744713703268913
2548.5 0.506824470726555 0.7394516661945244
2554.4 0.5235221519790009 0.7317179312437634
2560.3 0.534040888818121 0.7270158848056784
2566.2 0.5375190366158282 0.7247868828772902
2572.1 0.5490385040616558 0.7182015357956978
2578.0 0.5582906966751296 0.7098458077995904
2583.9 0.5629050065041233 0.7081830042339399
2589.8 0.5748509480062196 0.6989261532824247
2595.7 0.5795331633850804 0.6970594409883768
2601.6 0.5910803264854031 0.6858661327826686
2607.5 0.5975056354437764 0.6835651692452666
2613.4 0.6002969766510491 0.6821804901487303
2619.3 0.6136316087801813 0.6735070905185823
2625.2 0.6217755216248199 0.6676049909628449
2631.1 0.6269877940808466 0.6624549795753377
2637.0 0.6344589772176337 0.6557973238108976
2642.9 0.6388092696135904 0.6521800606411569
2648.8 0.652278127687267 0.645890098183458
2654.7 0.6505517024556629 0.6413666571784812
2660.6 0.6653118714343493 0.6288160751026666
2666.5 0.6667694882026436 0.6222514038282221
