! Created with skrf 1.9.0 (http://scikit-rf.org).
# MHz S RI R 50.0 
!freq ReS11 ImS11
100.0 -1.673795893225568e-05 9.857961396681832e-05
105.9 7.49639088417523e-05 0.00011524650626572043
111.8 5.422508455057274e-05 0.00013594930132288167
117.7 3.067312709209786e-05 0.00015386525522494244
123.6 1.2467135765092216e-06 6.140466649846362e-05
129.5 4.151736371153987e-05 9.779401533511068e-05
135.4 2.9004820702117372e-05 0.0001663564026816601
141.3 3.8880953197947496e-06 9.12712827629243e-05
147.2 -7.624318300186477e-05 0.00012247006059468187
153.1 -4.501497279444148e-05 0.00016273130078382067
159.0 -1.7374057824189627e-05 0.00014865476076209792
164.9 1.2099706727646238e-06 0.00015896746660636277
170.8 6.003103011404412e-05 0.00015802422740392814
176.7 5.080998233228915e-05 0.0002094044173846693
182.6 2.2350758169924667e-05 0.00013537831341402172
188.5 2.5574532802842017e-05 0.00027846455735872983
194.4 -2.957754537404692e-05 0.00015118231179447409
200.3 -3.635874722830679e-05 0.00023757661170189826
206.2 -4.3650029379397566e-05 0.0002640586109821332
212.1 -1.253865345808918e-06 0.00021731560897026255
218.0 -4.5936444132497315e-05 0.0001914215134377741
223.9 -2.038518596301742e-05 0.00021867250085779387
229.8 2.0002628031644237e-05 0.00024971796031805413
235.7 7.958151374101368e-06 0.00024094140625101947
241.6 -0.00011787578900558785 0.0002635633900384431
247.5 -7.554923241312429e-05 0.0002137430818922969
253.4 2.7772529061388254e-05 0.0002704474085366764
259.3 -1.1605440210164134e-05 0.00027981997505214726
265.2 2.6790263569353882e-05 0.0003121463970833702
271.1 1.0417143772028312e-05 0.00031446166925830604
277.0 7.4436121361302035e-06 0.00027136382348959633
282.9 -0.0001030254164515967 0.0003286648070981045
288.8 -1.6808789536982135e-05 0.00029734540723016676
294.7 -5.27780555272754e-05 0.0002796051276162096
300.6 -5.7658586669657234e-05 0.00029212786789085536
306.5 3.838683129855085e-05 0.00030470400594162435
312.4 -1.564530516892807e-05 0.0003327582486237311
318.3 -5.9180296083063285e-05 0.00027413702711441134
324.2 -5.609505177095689e-05 0.0003343638337149649
330.1 -3.669125223776615e-05 0.00033527478010138246
336.0 7.432256582035608e-06 0.00035361112507180533
341.9 -8.576682343638928e-05 0.0002737677698922136
347.8 -0.000144146317191981 0.0003322022450565625
353.7 -7.081998350424675e-05 0.00038650658486448833
359.6 -0.00010767377599155394 0.0003375338478728639
365.5 -0.00018063965053926288 0.0003701244431077178
371.4 -0.00011812554542840315 0.0003448797435516989
377.3 -0.0001385684381817434 0.00039924127033170683
383.2 -0.00014759168682666344 0.00037893372142479146
389.1 -0.00014254392792878524 0.0003686757827880633
395.0 -0.00011780088498077847 0.00031824015715129324
400.9 -0.00017530265598414343 0.00040799487345144925
406.8 -0.0001233272377953336 0.0003525914203273628
412.7 -0.00010415488566712871 0.00047870347664248685
418.6 -0.00018755044892101219 0.00042253065455589257
424.5 -0.00017592346155733703 0.00048795685233830004
430.4 -0.00014995947461909396 0.00047161393425048797
436.3 -0.00011187336662068492 0.0005096515650534211
442.2 -0.0001469317408997772 0.0006064496913748158
448.1 -0.0001145203342027725 0.0005646971518099441
454.0 -0.00012911611151935576 0.0005560351360100332
459.9 -5.7554988432931456e-05 0.0005044275997487201
465.8 -0.00014627091586808034 0.000515836025821833
471.7 -0.00013750234118831527 0.0004973334932611701
477.6 -9.363537168696787e-05 0.0004829696410752686
483.5 -0.00014750764463778817 0.00047968749575431446
489.4 -8.469154266459469e-05 0.0004746358429986957
495.3 -8.751534281649045e-05 0.0005364571857313031
501.2 -0.00011307124311122623 0.0005983693713732402
507.1 -0.00023218013882659114 0.00047332031448806835
513.0 -0.00021856700065273776 0.0005986418712047628
518.9 -0.00016611094601697395 0.000608773216128692
524.8 -9.283860261915595e-05 0.0005693844356714905
530.7 -0.00016243004728638436 0.0005775475290132698
536.6 -0.00011306263181438551 0.0006261323393891308
542.5 -0.00015094112104678816 0.000608789290787245
548.4 -0.00018583284175601695 0.0005573052187887099
554.3 -0.00014042648651765722 0.0006610104638869732
560.2 -0.00019048211233054703 0.0006467161855561192
566.1 -0.00017033250671169017 0.0006290557724083998
572.0 -0.00020181587333912223 0.0006708413186023409
577.9 -0.00011405543841598864 0.0006235083926442156
583.8 -0.00011207801977830378 0.000636629267839819
589.7 -0.0001684068904593157 0.0006266633714854882
595.6 -0.00015505786602429617 0.0006953065314634053
601.5 -0.00014284123523616258 0.0006979724987153264
607.4 -0.0001445179004840138 0.0006154079316282741
613.3 -0.00010950004086510495 0.00064739829733478
619.2 -0.00016330252812154288 0.000661789465799025
625.1 -0.00014507310614558878 0.0007023661286305763
631.0 -0.00013441647661785688 0.0006629299457079476
636.9 -0.0001348641454143303 0.0006464845008542989
642.8 -0.00012870142217935197 0.0006229301268303505
648.7 -0.00013421071784276896 0.0006544718424948058
654.6 -9.239712676874255e-05 0.0006712905732196656
660.5 -0.00020758759425899901 0.0005934209531113859
666.4 -0.00012059508428259815 0.0006571697639799037
672.3 -6.228441122339021e-05 0.0005562382594145919
678.2 -0.00017837392035689829 0.0005608077431668112
684.1 -0.00024345121456621443 0.0006913996133295688
690.0 5.681315248562405e-05 0.0007053853912010227
695.9 -0.00023738067555528574 0.0005780621391255475
701.8 -0.0002601326725150066 0.0006518958398838957
707.7 4.1848395975331154e-05 0.0009471170644972485
713.6 -0.0003179820899319146 0.0006670731816071722
719.5 -0.00027271657664679823 0.0006890711181146762
725.4 -0.0002778284012490093 0.0006549431983132176
731.3 -0.0003058129525460095 0.0006760752869644851
737.2 -0.0003322344180107703 0.0007074366216060797
743.1 -0.0003749677255807735 0.0006738002106005501
749.0 -0.0003108867671981222 0.0005848360142743273
754.9 -0.0003423447960493191 0.0006404835502596708
760.8 -0.0003830254403672693 0.0006566181921579176
766.7 -0.0004050402888396693 0.0007059454283609045
772.6 -0.00043685974026045363 0.0006742475557967982
778.5 -0.0004018077819006783 0.0007753692692456154
784.4 -0.00043995696627132107 0.0007330391875454738
790.3 -0.0004967793066781486 0.0007867103816932317
796.2 -0.0004750088666598313 0.0007122590031310371
802.1 -0.00044550896926531905 0.0008256761944103757
808.0 -0.0004862282945913766 0.0008104139075715095
813.9 -0.0005224826217397018 0.0008230084355922673
819.8 -0.0004883420611034255 0.0007971603774787857
825.7 -0.0005358563697948369 0.000861251685281131
831.6 -0.0005794254303221194 0.0008628266568111135
837.5 -0.0005175607552327375 0.0008810191728702953
843.4 -0.000549377168510225 0.0008761273179274735
849.3 -0.0006144642230563146 0.000979675954679437
855.2 -0.0005627311012688849 0.0010033403540903743
861.1 -0.0005964239506868735 0.0009732152619100877
867.0 -0.000550003256871298 0.0009709440220148593
872.9 -0.0005426133538069171 0.0010605294929151314
878.8 -0.00054544993289066 0.0010488046667355558
884.7 -0.0005253160407116224 0.001086156698470868
890.6 -0.0004973260190261799 0.0010546695552226249
896.5 -0.000474544151614858 0.0011450153630625682
902.4 -0.00047324123246063094 0.001134209600307954
908.3 -0.00048591165486695044 0.001142474045206856
914.2 -0.0003532183487922169 0.001089402321619259
920.1 -0.0003962618947422639 0.0011488384647199443
926.0 -0.00038818321899595777 0.0010879994347389227
931.9 -0.0004038218149545395 0.0011243280239023185
937.8 -0.00034289550672206607 0.0010749045517952787
943.7 -0.00037564126957598346 0.0011274493872150087
949.6 -0.000330753359776763 0.0010455232769479206
955.5 -0.00037036649670708254 0.0009886463766390883
961.4 -0.0004095938719286458 0.0010414342834838984
967.3 -0.0004091066298079023 0.0010075270019888089
973.2 -0.0005028626114759693 0.00104855683293899
979.1 -0.0004426664260618817 0.0010270432192208746
985.0 -0.0005074860580117553 0.000954920148541772
990.9 -0.0004931524396266565 0.0010695384870810073
996.8 -0.0005101466186714539 0.0009507794790183674
1002.7 -0.0004988928195984527 0.0009012545008686961
1008.6 -0.0004284989183659496 0.0010099641398681435
1014.5 -0.0005827453617823793 0.0010654917909047347
1020.4 -0.0005717736730708475 0.0011237030770482016
1026.3 -0.000758938723642378 0.0008628983222404092
1032.2 -0.0007318814407522706 0.0010038614238687862
1038.1 -0.0006935740455517252 0.0010957695507972246
1044.0 -0.0005187394786209698 0.000777800439085406
1049.9 -0.0006036257012801959 0.0013074407028877508
1055.8 -0.0004890547282369183 0.0009974087939378432
1061.7 -0.0005015307290458056 0.000988708977751742
1067.6 -0.0006768143466268084 0.001049634686808077
1073.5 -0.0007650611538119135 0.001127395230562041
1079.4 -0.000544745952950316 0.0017321472178724192
1085.3 -0.0005607192226285768 0.0009383522648582055
1091.2 -0.000702099749806287 0.0010408017852864538
1097.1 -0.000785482216144959 0.001095124355023693
1103.0 -0.000779248017220073 0.0010895355862209953
1108.9 -0.0009272264875407779 0.0009237150016907658
1114.8 -0.0009034784959724799 0.0011361492309172742
1120.7 -0.0011449728207519744 0.0012539760076552163
1126.6 -0.0011388446485470932 0.0012488337802806036
1132.5 -0.001135147254954866 0.0011205421073333833
1138.4 -0.0010981893959422717 0.0012355447873299607
1144.3 -0.0010871278498196673 0.0011579425142393888
1150.2 -0.0010255384889477275 0.001308557128714043
1156.1 -0.0008993787768457334 0.0012851341552562608
1162.0 -0.0011075786939530997 0.0013263341702861213
1167.9 -0.0010697613125501752 0.0018387456486159525
1173.8 -0.0010876434723010111 0.001476314510307977
1179.7 -0.0010724012415999438 0.0013286714309427498
1185.6 -0.0009899603423284013 0.0015066419119409635
1191.5 -0.0009172588060206106 0.001498337723046814
1197.4 -0.0008619496067974245 0.0016501386158200829
1203.3 -0.0010282959433455048 0.0013395560433097373
1209.2 -0.0008226229801255275 0.001453582287158889
1215.1 -0.0008513176283887435 0.0014298244181329342
1221.0 -0.0007800556844689249 0.001355524942182535
1226.9 -0.0008221631402008962 0.001460104723553038
1232.8 -0.0008156929118574124 0.0013870716149830989
1238.7 -0.0008017923273056668 0.0013158509186189367
1244.6 -0.0007720758096003307 0.001334890946839203
1250.5 -0.0008531760168778601 0.0014214764430309271
1256.4 -0.0008574428821851093 0.001336696647444437
1262.3 -0.0009371947516222993 0.0013728037164269624
1268.2 -0.0009053280016908231 0.0013906471176680165
1274.1 -0.0009679122763310107 0.0013997662154969289
1280.0 -0.0009291898933925868 0.0013606627473912915
1285.9 -0.001037091129997031 0.001329374682639889
1291.8 -0.0010328190165624692 0.0013766093826711602
1297.7 -0.0010586916791523063 0.001450650513384142
1303.6 -0.0010872351985809047 0.0013787562388318006
1309.5 -0.001082547293944954 0.0014187918361759616
1315.4 -0.0011244038549967006 0.001441652061897332
1321.3 -0.0011485158999068991 0.0014814324455009568
1327.2 -0.0011017176780489734 0.001470484762372397
1333.1 -0.0011272661002262939 0.0014407567943916014
1339.0 -0.0011336409182164731 0.0014536047752160609
1344.9 -0.0011502554542837662 0.0015276362206992197
1350.8 -0.0011961633654909278 0.0013839296172234359
1356.7 -0.0012118276952238218 0.0014474385171936888
1362.6 -0.0012543805431897586 0.001485864977325735
1368.5 -0.0012584264642173705 0.0014828235164410226
1374.4 -0.0012985063243496834 0.0014660525488495145
1380.3 -0.0013424946213424845 0.0014402070361254223
1386.2 -0.0014194296973676344 0.0014519257840352436
1392.1 -0.0014178317892831838 0.0014986254463997316
1398.0 -0.0015015436530748996 0.0014820904112271668
1403.9 -0.0015450985710833962 0.0015665885781982174
1409.8 -0.0016479531439371115 0.001610107864364494
1415.7 -0.0016238903010914183 0.0015866339021384471
1421.6 -0.0016872650062939607 0.0016949463684461815
1427.5 -0.0017103944274270866 0.001766248918650544
1433.4 -0.0016982779428421834 0.0018308622442001002
1439.3 -0.0016459878744169419 0.0018836621347026502
1445.2 -0.0016630546703179287 0.0019280056439971477
1451.1 -0.0016467532991357202 0.0019911567423434554
1457.0 -0.0016024457226554614 0.001977109836189565
1462.9 -0.001600447288008844 0.0020239574080639037
1468.8 -0.0014938584295682072 0.0020519740361992674
1474.7 -0.0014883553132264552 0.002075656956608381
1480.6 -0.0014201927361550666 0.002031726818924716
1486.5 -0.0014026410031474092 0.002047841489628662
1492.4 -0.0013962180924380857 0.0020341116136631207
1498.3 -0.001386408205647986 0.0020073936103887522
1504.2 -0.0013082631895682448 0.002018381663263581
1510.1 -0.0013897550533857718 0.0019606208142127967
1516.0 -0.0013787267737216857 0.0019170473424227265
1521.9 -0.001360177227261271 0.001887743335377483
1527.8 -0.00139037368910176 0.0019266321747576321
1533.7 -0.0013842552034835519 0.0018442257581321702
1539.6 -0.0014425637426400417 0.0018231222084947867
1545.5 -0.00149391697760251 0.0018266084030600146
1551.4 -0.0014859962474830135 0.0018957639028814514
1557.3 -0.001589252734763736 0.001871516273068921
1563.2 -0.001618341670742304 0.001813535810971897
1569.1 -0.0016172810548284223 0.0019323787637540793
1575.0 -0.0016669014449733456 0.001881246643579121
1580.9 -0.0016604652709740397 0.0019387968070019937
1586.8 -0.0016520303608018384 0.0018379769452043116
1592.7 -0.0017220543461519 0.0018925995441539409
1598.6 -0.0017048842679807798 0.0019826603328567767
1604.5 -0.0017712959777184361 0.0019619040448547874
1610.4 -0.001698755984439725 0.0019291615835966194
1616.3 -0.0017147639651027761 0.0018733670109914225
1622.2 -0.0018080441681397174 0.0019451231122092902
1628.1 -0.0018254165549994065 0.001931374829361917
1634.0 -0.0018537387876921203 0.0018735034606094548
1639.9 -0.0018899409989420832 0.0018852001930310487
1645.8 -0.002040387735975128 0.0019165883278861146
1651.7 -0.002030226736225286 0.0018363549394333684
1657.6 -0.0020511974714649034 0.0019383891427995417
1663.5 -0.002221917976079319 0.0018556543112977135
1669.4 -0.0022332068747859457 0.001911826266665149
1675.3 -0.002305756510047991 0.0019536782358679588
1681.2 -0.0023536892104392597 0.0019033276954901395
1687.1 -0.00249209395494001 0.0019675446775075573
1693.0 -0.002565210332390313 0.0020272026460991213
1698.9 -0.002646701219836617 0.0021204052925141766
1704.8 -0.0027547691481321426 0.0021024455805335246
1710.7 -0.0027841252977351292 0.0022875040934597574
1716.6 -0.00285293809345205 0.002373192487937751
1722.5 -0.002894710661025025 0.002507184704771137
1728.4 -0.002867759399621348 0.00263445140531287
1734.3 -0.0028824163447400625 0.0026870944300715857
1740.2 -0.0028798889567636238 0.0028208016093539
1746.1 -0.002839834772866465 0.0029206071646535464
1752.0 -0.0027416582049862533 0.003067867258406711
1757.9 -0.0026593055525757645 0.003040839298267262
1763.8 -0.002568771985023598 0.003100696306891201
1769.7 -0.0024596677090198524 0.0031337689509789634
1775.6 -0.002421498208324961 0.00310072778740064
1781.5 -0.0024025626434831496 0.0031312504787254537
1787.4 -0.002321503406526711 0.003172468726531483
1793.3 -0.0022786559684017057 0.0030363965147628385
1799.2 -0.0022670243760868503 0.002997373952821406
1805.1 -0.002217715666356528 0.003012707008045046
1811.0 -0.002223312041577034 0.0030313471041096994
1816.9 -0.0022126034217662674 0.0029121138822346703
1822.8 -0.002261856745258046 0.0029658957663493903
1828.7 -0.0021983766314599192 0.002893892594920762
1834.6 -0.002295132923283227 0.00284070098543358
1840.5 -0.0022964362109013604 0.002858342197539782
1846.4 -0.0023150658865511453 0.0029221155497344306
1852.3 -0.002334252416197051 0.002846799026943876
1858.2 -0.0024008269935548825 0.0028202522958929374
1864.1 -0.0024029705515006636 0.002811115552967982
1870.0 -0.00245583233715842 0.0027177585331406356
1875.9 -0.002472355142663482 0.002745871668412079
1881.8 -0.002443270882928759 0.002809262185577767
1887.7 -0.002539871783931133 0.0028255239352764864
1893.6 -0.0025823297290953288 0.0028312924596158905
1899.5 -0.002599268012417176 0.002737218091140601
1905.4 -0.0027501195557266067 0.0026984157120896095
1911.3 -0.002747726103840898 0.002699762331888158
1917.2 -0.0028525220142716703 0.0026582935215488076
1923.1 -0.0029350849393630957 0.002608915593341375
1929.0 -0.002949476372498334 0.002601068355698224
1934.9 -0.0030959705238626707 0.002593154077472386
1940.8 -0.003182617591663651 0.002592570094662807
1946.7 -0.0032503987190595635 0.00258480929857046
1952.6 -0.0034075824768519327 0.0025842979909201104
1958.5 -0.003517804148521636 0.0026180121322767706
1964.4 -0.0037144937738901474 0.002687220943024161
1970.3 -0.0038170076257230583 0.0026568256950615784
1976.2 -0.004032599121511879 0.002802804450477296
1982.1 -0.004154656134075303 0.0028687182295896686
1988.0 -0.004297945563428082 0.0029491694848171055
1993.9 -0.004404697514828083 0.0030694231256335166
1999.8 -0.004513530349144768 0.0032127716241243096
2005.7 -0.0046183944052044755 0.0034829452628887332
2011.6 -0.004609748850975596 0.0036578830917723738
2017.5 -0.004617343437896828 0.0038669221006376246
2023.4 -0.004663309889179869 0.004107088609280782
2029.3 -0.004672732046188229 0.004250115470803996
2035.2 -0.004516927770022629 0.0044280340182540736
2041.1 -0.0044599115266414895 0.004562025186623102
2047.0 -0.004308015390738153 0.004761068539883521
2052.9 -0.0041716114036402605 0.004769632423787666
2058.8 -0.0041722087152517625 0.004855242370169293
2064.7 -0.0039828859567687626 0.004824607489031992
2070.6 -0.0038495942949608535 0.004903410454472673
2076.5 -0.003774815412955643 0.004913881444126163
2082.4 -0.0036287812232462433 0.004906672690277287
2088.3 -0.003679359532408249 0.00490976666987614
2094.2 -0.0036253091529311224 0.004747399850812084
2100.1 -0.003558725735174026 0.004783030649724777
2106.0 -0.0035763473905250425 0.004699337506349623
2111.9 -0.00358554245138161 0.004634188520757182
2117.8 -0.003647011671603835 0.004683954552288024
2123.7 -0.003597304327411808 0.004688015409905565
2129.6 -0.0035883883275209926 0.004687458789971062
2135.5 -0.0036856464038877482 0.004674698742825276
2141.4 -0.0037103845305888248 0.004667010464390322
2147.3 -0.0037609224064656453 0.00461042658058689
2153.2 -0.003854683411053893 0.0044658446879198435
2159.1 -0.003943029545154015 0.004520589062628041
2165.0 -0.003934034431037594 0.00456773801092746
2170.9 -0.003953859183207174 0.004471681911702205
2176.8 -0.004073506645544774 0.00453448943176841
2182.7 -0.004063460249709206 0.004440662226473768
2188.6 -0.004232422573309647 0.004442113126025351
2194.5 -0.004179406868615317 0.004415153548115372
2200.4 -0.004402889678846442 0.00425318143053657
2206.3 -0.004562212998537341 0.004258776632142514
2212.2 -0.004669141500687087 0.004217078991407066
2218.1 -0.004753536224609473 0.004186650985992734
2224.0 -0.004978358322469321 0.004219006330086495
2229.9 -0.0051609663396212065 0.0042461634089625165
2235.8 -0.005331226681660434 0.00421677168612213
2241.7 -0.005622434722777483 0.004245843349219833
2247.6 -0.005934713082652624 0.004385889779581947
2253.5 -0.006206117081523797 0.004311861574516139
2259.4 -0.006411950717832351 0.004484705376241173
2265.3 -0.006711163585896467 0.004644091525755772
2271.2 -0.006937173013625203 0.004923282878014814
2277.1 -0.007247958011814563 0.0050727729425984365
2283.0 -0.0076374509444487124 0.005324231799573609
2288.9 -0.007820999391455552 0.005712987430038994
2294.8 -0.007945525130532238 0.006117410730492089
2300.7 -0.008116697814223294 0.0064876478318521506
2306.6 -0.008192608866367981 0.006789287028269961
2312.5 -0.008118587710091319 0.007332158436069446
2318.4 -0.008025140721879933 0.00766644615576187
2324.3 -0.007885048573310136 0.007912951592321521
2330.2 -0.00755624925908809 0.008311105796841294
2336.1 -0.0074339591645127415 0.008476148508961018
2342.0 -0.0072872757786752295 0.008493262826237474
2347.9 -0.0070618180186776194 0.008670830579492375
2353.8 -0.00680090710942384 0.008735177593481877
2359.7 -0.006726154847084008 0.008814507657908463
2365.6 -0.006634927633614579 0.008783370074030855
2371.5 -0.00642889324065814 0.00878243813670599
2377.4 -0.006331396586589863 0.008728677321794153
2383.3 -0.006319166826147258 0.008763767190988508
2389.2 -0.0063904002140094665 0.008730428309260067
